date Thu Jul 24 08:07:04.382 2025
base hex  timestamps absolute
internal events logged
Begin Triggerblock Thu Jul 24 08:07:04.376 2025
 0.000000 Start of measurement
 0.000000 1  257             Rx   d 8 00 00 00 00 FF FF FF F4
 0.000261 1  258             Rx   d 8 00 03 00 00 00 00 00 24
 0.000491 1  231             Rx   d 8 00 01 00 00 00 00 00 36
 0.000742 1  311             Rx   d 8 FF FF FE BA FF FF FE 72
 0.000975 1  312             Rx   d 8 FF FF FE 94 FF FF FE 58
 0.001208 1  211             Rx   d 8 00 01 01 EF 00 00 00 00
 0.001348 1  291             Rx   d 3 00 00 00
 0.018152 1  221             Rx   d 8 00 00 00 00 00 00 00 00
 0.018344 1  281             Rx   d 8 00 00 00 00 00 00 00 00
 0.018597 1  271             Rx   d 8 00 00 00 00 00 00 00 00
 0.018819 1  241             Rx   d 8 AA 00 00 00 00 00 02 37
 0.019080 1  251             Rx   d 8 00 00 00 00 FF FF DF 26
 0.019328 1  252             Rx   d 8 00 00 00 06 FF FF DD 9F
 0.019566 1  253             Rx   d 8 00 00 00 01 00 00 23 99
 0.019789 1  263             Rx   d 8 01 ED 00 27 18 40 00 00
 0.020049 1  254             Rx   d 8 00 00 00 02 00 00 21 EA
 0.020289 1  255             Rx   d 8 00 00 00 02 FF FF FF F0
 0.020563 1  256             Rx   d 8 00 00 00 03 00 00 00 02
 0.020793 1  257             Rx   d 8 00 00 00 00 FF FF FF F4
 0.021024 1  258             Rx   d 8 00 03 00 00 00 00 00 42
 0.021287 1  268             Rx   d 8 01 E9 00 28 1D 40 00 00
 0.021538 1  231             Rx   d 8 00 01 00 00 00 00 00 37
 0.021766 1  311             Rx   d 8 FF FF FE BA FF FF FE 72
 0.021999 1  312             Rx   d 8 FF FF FE 94 FF FF FE 58
 0.022231 1  211             Rx   d 8 00 01 01 EF 00 00 00 00
 0.022433 1  291             Rx   d 3 00 00 00
 0.039153 1  221             Rx   d 8 00 00 00 00 00 00 00 00
 0.039362 1  281             Rx   d 8 00 00 00 00 00 00 00 00
 0.039592 1  271             Rx   d 8 00 00 00 00 00 00 00 00
 0.039839 1  241             Rx   d 8 AA 00 00 00 00 00 02 38
 0.040103 1  251             Rx   d 8 00 00 00 00 FF FF DF 27
 0.040329 1  252             Rx   d 8 00 00 00 06 FF FF DD 9E
 0.040567 1  253             Rx   d 8 00 00 00 01 00 00 23 98
 0.040796 1  254             Rx   d 8 00 00 00 01 00 00 21 EA
 0.041051 1  255             Rx   d 8 00 00 00 02 FF FF FF F0
 0.041311 1  265             Rx   d 8 01 E8 00 28 1C 40 00 00
 0.041538 1  256             Rx   d 8 00 00 00 03 00 00 00 02
 0.041788 1  257             Rx   d 8 00 00 00 01 FF FF FF F4
 0.042047 1  258             Rx   d 8 00 03 00 00 00 00 00 46
 0.042300 1  231             Rx   d 8 00 01 00 00 00 00 00 38
 0.042538 1  311             Rx   d 8 FF FF FE BA FF FF FE 72
 0.042761 1  312             Rx   d 8 FF FF FE 94 FF FF FE 58
 0.042995 1  211             Rx   d 8 00 01 01 EF 00 00 00 00
 0.043173 1  291             Rx   d 3 00 00 00
 0.060162 1  221             Rx   d 8 00 00 00 00 00 00 00 00
 0.060335 1  281             Rx   d 8 00 00 00 00 00 00 00 00
 0.060567 1  271             Rx   d 8 00 00 00 00 00 00 00 00
 0.060816 1  241             Rx   d 8 AA 00 00 00 00 00 02 39
 0.061056 1  251             Rx   d 8 00 00 00 00 FF FF DF 26
 0.061291 1  252             Rx   d 8 00 00 00 05 FF FF DD 9F
 0.061546 1  262             Rx   d 8 01 EB 00 27 19 40 00 00
 0.061773 1  253             Rx   d 8 00 00 00 01 00 00 23 98
 0.062031 1  254             Rx   d 8 00 00 00 01 00 00 21 EA
 0.062263 1  255             Rx   d 8 00 00 00 02 FF FF FF F0
 0.062520 1  256             Rx   d 8 00 00 00 03 00 00 00 02
 0.062773 1  257             Rx   d 8 00 00 00 01 FF FF FF F4
 0.063006 1  267             Rx   d 8 01 E5 00 27 1B 40 00 00
 0.063264 1  258             Rx   d 8 00 01 00 00 00 00 00 46
 0.063512 1  231             Rx   d 8 00 01 00 00 00 00 00 39
 0.063746 1  311             Rx   d 8 FF FF FE BA FF FF FE 72
 0.063979 1  312             Rx   d 8 FF FF FE 94 FF FF FE 58
 0.064212 1  211             Rx   d 8 00 01 01 EF 00 00 00 00
 0.064368 1  291             Rx   d 3 00 00 00
 0.079815 1  361             Rx   d 8 19 64 13 1A FF FA 01 23
 0.080018 1  362             Rx   d 8 00 00 00 00 00 00 02 06
 0.081104 1  221             Rx   d 8 00 00 00 00 00 00 00 00
 0.081340 1  281             Rx   d 8 00 00 00 00 00 00 00 00
 0.081572 1  271             Rx   d 8 00 00 00 00 00 00 00 00
 0.081821 1  241             Rx   d 8 AA 00 00 00 00 00 02 3A
 0.082081 1  251             Rx   d 8 00 00 00 00 FF FF DF 26
 0.082314 1  252             Rx   d 8 00 00 00 06 FF FF DD 9E
 0.082569 1  253             Rx   d 8 00 00 00 01 00 00 23 98
 0.082793 1  254             Rx   d 8 00 00 00 01 00 00 21 EA
 0.083051 1  264             Rx   d 8 01 E5 00 27 1C 40 00 00
 0.083285 1  255             Rx   d 8 00 00 00 02 FF FF FF F0
 0.083517 1  256             Rx   d 8 00 00 00 02 00 00 00 02
 0.083769 1  257             Rx   d 8 00 00 00 01 FF FF FF F4
 0.084028 1  258             Rx   d 8 00 00 00 01 00 00 00 46
 0.084263 1  231             Rx   d 8 00 01 00 00 00 00 00 3A
 0.084496 1  311             Rx   d 8 FF FF FE BA FF FF FE 72
 0.084742 1  312             Rx   d 8 FF FF FE 94 FF FF FE 58
 0.085001 1  211             Rx   d 8 00 01 01 EF 00 00 00 00
 0.085155 1  291             Rx   d 3 00 00 00
 0.102160 1  221             Rx   d 8 00 00 00 00 00 00 00 00
 0.102341 1  281             Rx   d 8 00 00 00 00 00 00 00 00
 0.102591 1  271             Rx   d 8 00 00 00 00 00 00 00 00
 0.102818 1  241             Rx   d 8 AA 00 00 00 00 00 02 3B
 0.103098 1  251             Rx   d 8 00 00 00 00 FF FF DF 27
 0.103325 1  261             Rx   d 8 01 E7 00 27 1A 40 00 00
 0.103563 1  252             Rx   d 8 00 00 00 06 FF FF DD 9E
 0.103791 1  253             Rx   d 8 00 00 00 01 00 00 23 98
 0.104067 1  254             Rx   d 8 00 00 00 02 00 00 21 EA
 0.104284 1  255             Rx   d 8 00 00 00 01 FF FF FF F0
 0.104534 1  256             Rx   d 8 00 00 00 03 00 00 00 02
 0.104767 1  266             Rx   d 8 01 E6 00 28 1C 40 00 00
 0.105042 1  257             Rx   d 8 00 00 00 01 FF FF FF F4
 0.105285 1  258             Rx   d 8 00 00 00 01 00 00 00 46
 0.105513 1  231             Rx   d 8 00 01 00 00 00 00 00 3B
 0.105761 1  311             Rx   d 8 FF FF FE BA FF FF FE 72
 0.105991 1  312             Rx   d 8 FF FF FE 94 FF FF FE 58
 0.106234 1  211             Rx   d 8 00 01 01 EF 00 00 00 00
 0.106387 1  291             Rx   d 3 00 00 00
 0.123210 1  221             Rx   d 8 00 00 00 00 00 00 00 00
 0.123446 1  281             Rx   d 8 00 00 00 00 00 00 00 00
 0.123629 1  271             Rx   d 8 00 00 00 00 00 00 00 00
 0.123879 1  241             Rx   d 8 AA 00 00 00 00 00 02 3C
 0.124111 1  251             Rx   d 8 00 00 00 02 FF FF DF 26
 0.124288 1  252             Rx   d 8 00 00 00 00 FF FF DD 9F
 0.124543 1  253             Rx   d 8 00 00 00 01 00 00 23 98
 0.124766 1  263             Rx   d 8 01 ED 00 27 19 40 00 00
 0.124996 1  254             Rx   d 8 00 00 00 01 00 00 21 EA
 0.125261 1  255             Rx   d 8 00 00 00 02 FF FF FF F0
 0.125516 1  256             Rx   d 8 00 00 00 03 00 00 00 02
 0.125744 1  257             Rx   d 8 00 00 00 01 FF FF FF F4
 0.126000 1  258             Rx   d 8 00 00 00 01 00 00 00 46
 0.126232 1  268             Rx   d 8 01 E9 00 28 1C 40 00 00
 0.126494 1  231             Rx   d 8 00 01 00 00 00 00 00 3C
 0.126740 1  311             Rx   d 8 FF FF FE BA FF FF FE 72
 0.126947 1  312             Rx   d 8 FF FF FE 94 FF FF FE 58
 0.127206 1  211             Rx   d 8 00 01 01 EF 00 00 00 00
 0.127347 1  291             Rx   d 3 00 00 00
 0.144168 1  221             Rx   d 8 00 00 00 00 00 00 00 00
 0.144338 1  281             Rx   d 8 00 00 00 00 00 00 00 00
 0.144595 1  271             Rx   d 8 00 00 00 00 00 00 00 00
 0.144817 1  241             Rx   d 8 AA 00 00 00 00 00 02 3D
 0.145048 1  251             Rx   d 8 00 00 00 00 FF FF DF 27
 0.145316 1  252             Rx   d 8 00 00 00 06 FF FF DD 9E
 0.145540 1  253             Rx   d 8 00 00 00 01 00 00 23 98
 0.145790 1  254             Rx   d 8 00 00 00 01 00 00 21 EA
 0.146048 1  255             Rx   d 8 00 03 00 01 00 00 00 18
 0.146280 1  265             Rx   d 8 01 E8 00 28 1C 40 00 00
 0.146539 1  256             Rx   d 8 00 00 00 03 00 00 00 02
 0.146765 1  257             Rx   d 8 00 00 00 01 FF FF FF F4
 0.147025 1  258             Rx   d 8 00 00 00 02 00 00 00 46
 0.147256 1  231             Rx   d 8 00 01 00 00 00 00 00 3D
 0.147491 1  311             Rx   d 8 FF FF FE BA FF FF FE 72
 0.147764 1  312             Rx   d 8 FF FF FE 94 FF FF FE 58
 0.147997 1  211             Rx   d 8 00 01 01 EF 00 00 00 00
 0.148151 1  291             Rx   d 3 00 00 00
 0.165123 1  221             Rx   d 8 00 00 00 00 00 00 00 00
 0.165338 1  281             Rx   d 8 00 00 00 00 00 00 00 00
 0.165572 1  271             Rx   d 8 00 00 00 00 00 00 00 00
 0.165843 1  241             Rx   d 8 AA 00 00 00 00 00 02 3E
 0.166075 1  251             Rx   d 8 00 00 00 00 FF FF DF 26
 0.166313 1  252             Rx   d 8 00 00 00 06 FF FF DD 9F
 0.166567 1  262             Rx   d 8 01 EB 00 27 19 40 00 00
 0.166787 1  253             Rx   d 8 00 00 00 01 00 00 23 98
 0.167048 1  254             Rx   d 8 00 00 00 01 00 00 21 EA
 0.167287 1  255             Rx   d 8 00 03 00 01 00 00 00 18
 0.167547 1  256             Rx   d 8 00 00 00 03 00 00 00 02
 0.167791 1  257             Rx   d 8 00 00 00 00 FF FF FF F4
 0.168023 1  267             Rx   d 8 01 E5 00 27 1B 40 00 00
 0.168284 1  258             Rx   d 8 00 00 00 01 00 00 00 46
 0.168535 1  231             Rx   d 8 00 01 00 00 00 00 00 3E
 0.168766 1  311             Rx   d 8 FF FF FE BA FF FF FE 72
 0.168998 1  312             Rx   d 8 FF FF FE 94 FF FF FE 58
 0.169240 1  211             Rx   d 8 00 01 01 EF 00 00 00 00
 0.169370 1  291             Rx   d 3 00 00 00
 0.186172 1  221             Rx   d 8 00 00 00 00 00 00 00 00
 0.186337 1  281             Rx   d 8 00 00 00 00 00 00 00 00
 0.186588 1  271             Rx   d 8 00 00 00 00 00 00 00 00
 0.186816 1  241             Rx   d 8 AA 00 00 00 00 00 02 3F
 0.187078 1  251             Rx   d 8 00 00 00 00 FF FF DF 27
 0.187293 1  252             Rx   d 8 00 00 00 07 FF FF DD 9F
 0.187578 1  253             Rx   d 8 00 00 00 00 00 00 23 98
 0.187790 1  254             Rx   d 8 00 00 00 01 00 00 21 EA
 0.188070 1  264             Rx   d 8 01 E5 00 27 1C 40 00 00
 0.188284 1  255             Rx   d 8 00 03 00 01 00 00 00 26
 0.188546 1  256             Rx   d 8 00 00 00 02 00 00 00 02
 0.188791 1  257             Rx   d 8 00 00 00 00 FF FF FF F4
 0.189023 1  258             Rx   d 8 00 00 00 02 00 00 00 46
 0.189289 1  231             Rx   d 8 00 01 00 00 00 00 00 3F
 0.189533 1  311             Rx   d 8 FF FF FE BA FF FF FE 72
 0.189763 1  312             Rx   d 8 FF FF FE 94 FF FF FE 58
 0.190029 1  211             Rx   d 8 00 01 01 EF 00 00 00 00
 0.190150 1  291             Rx   d 3 00 00 00
 0.207100 1  221             Rx   d 8 00 00 00 00 00 00 00 00
 0.207337 1  281             Rx   d 8 00 00 00 00 00 00 00 00
 0.207588 1  271             Rx   d 8 00 00 00 00 00 00 00 00
 0.207841 1  241             Rx   d 8 AA 00 00 00 00 00 02 40
 0.208074 1  251             Rx   d 8 00 00 00 00 FF FF DF 27
 0.208334 1  261             Rx   d 8 01 E7 00 27 1C 40 00 00
 0.208567 1  252             Rx   d 8 00 00 00 01 FF FF DD 9F
 0.208795 1  253             Rx   d 8 00 00 00 00 00 00 23 98
 0.209047 1  254             Rx   d 8 00 00 00 02 00 00 21 EA
 0.209285 1  255             Rx   d 8 00 01 00 01 00 00 00 27
 0.209539 1  256             Rx   d 8 00 00 00 02 00 00 00 02
 0.209789 1  266             Rx   d 8 01 E6 00 28 1C 40 00 00
 0.210022 1  257             Rx   d 8 00 00 00 00 FF FF FF F4
 0.210285 1  258             Rx   d 8 FF FE 00 02 00 00 00 1F
 0.210513 1  231             Rx   d 8 00 01 00 00 00 00 00 40
 0.210764 1  311             Rx   d 8 FF FF FE BA FF FF FE 72
 0.210995 1  312             Rx   d 8 FF FF FE 94 FF FF FE 58
 0.211260 1  211             Rx   d 8 00 01 01 EF 00 00 00 00
 0.211387 1  291             Rx   d 3 00 00 00
 0.228108 1  221             Rx   d 8 00 00 00 00 00 00 00 00
 0.228336 1  281             Rx   d 8 00 00 00 00 00 00 00 00
 0.228568 1  271             Rx   d 8 00 00 00 00 00 00 00 00
 0.228815 1  241             Rx   d 8 AA 00 00 00 00 00 02 41
 0.229081 1  251             Rx   d 8 00 00 00 00 FF FF DF 26
 0.229293 1  252             Rx   d 8 00 00 00 00 FF FF DD 9F
 0.229565 1  253             Rx   d 8 00 00 00 00 00 00 23 98
 0.229789 1  263             Rx   d 8 01 ED 00 27 18 40 00 00
 0.230047 1  254             Rx   d 8 00 00 00 01 00 00 21 EA
 0.230284 1  255             Rx   d 8 00 00 00 01 00 00 00 27
 0.230538 1  256             Rx   d 8 00 00 00 03 00 00 00 02
 0.230783 1  257             Rx   d 8 00 00 00 00 FF FF FF F4
 0.231022 1  258             Rx   d 8 FF FD 00 02 00 00 00 11
 0.231274 1  268             Rx   d 8 01 E9 00 28 1D 40 00 00
 0.231514 1  231             Rx   d 8 00 01 00 00 00 00 00 41
 0.231764 1  311             Rx   d 8 FF FF FE BA FF FF FE 72
 0.231997 1  312             Rx   d 8 FF FF FE 94 FF FF FE 58
 0.232229 1  211             Rx   d 8 00 01 01 EF 00 00 00 00
 0.232381 1  291             Rx   d 3 00 00 00
 0.249105 1  221             Rx   d 8 00 00 00 00 00 00 00 00
 0.249336 1  281             Rx   d 8 00 00 00 00 00 00 00 00
 0.249598 1  271             Rx   d 8 00 00 00 00 00 00 00 00
 0.249817 1  241             Rx   d 8 AA 00 00 00 00 00 02 42
 0.250077 1  251             Rx   d 8 00 00 00 00 FF FF DF 27
 0.250292 1  252             Rx   d 8 00 00 00 02 FF FF DD 9E
 0.250543 1  253             Rx   d 8 00 00 00 00 00 00 23 98
 0.250789 1  254             Rx   d 8 00 00 00 02 00 00 21 EA
 0.251047 1  255             Rx   d 8 00 00 00 00 00 00 00 27
 0.251284 1  265             Rx   d 8 01 E8 00 28 1C 40 00 00
 0.251505 1  256             Rx   d 8 00 00 00 02 00 00 00 02
 0.251789 1  257             Rx   d 8 00 00 00 01 FF FF FF F4
 0.252022 1  258             Rx   d 8 FF FD 00 01 FF FF FF F5
 0.252286 1  231             Rx   d 8 00 01 00 00 00 00 00 42
 0.252514 1  311             Rx   d 8 FF FF FE BA FF FF FE 72
 0.252737 1  312             Rx   d 8 FF FF FE 94 FF FF FE 58
 0.252996 1  211             Rx   d 8 00 01 01 EF 00 00 00 00
 0.253150 1  291             Rx   d 3 00 00 00
 0.270112 1  221             Rx   d 8 00 00 00 00 00 00 00 00
 0.270343 1  281             Rx   d 8 00 00 00 00 00 00 00 00
 0.270568 1  271             Rx   d 8 00 00 00 00 00 00 00 00
 0.270814 1  241             Rx   d 8 AA 00 00 00 00 00 02 43
 0.271073 1  251             Rx   d 8 00 00 00 01 FF FF DF 26
 0.271293 1  252             Rx   d 8 00 00 00 00 FF FF DD 9F
 0.522083 1  221             Rx   d 8 00 00 00 00 00 00 00 00
 0.522307 1  281             Rx   d 8 00 00 00 00 00 00 00 00
 0.522568 1  271             Rx   d 8 00 00 00 00 00 00 00 00
 0.522788 1  241             Rx   d 8 AA 00 00 00 00 00 02 4F
 0.523048 1  251             Rx   d 8 00 00 00 01 FF FF DF 27
 0.523333 1  261             Rx   d 8 01 E7 00 27 1C 40 00 00
 0.523514 1  252             Rx   d 8 00 00 00 00 FF FF DD 9E
 0.523763 1  253             Rx   d 8 00 00 00 02 00 00 23 99
 0.524020 1  254             Rx   d 8 00 00 00 01 00 00 21 EA
 0.524259 1  255             Rx   d 8 FF FD 00 00 FF FF FF F4
 0.524518 1  256             Rx   d 8 00 00 00 03 00 00 00 02
 0.524734 1  266             Rx   d 8 01 E6 00 28 1C 40 00 00
 0.524996 1  257             Rx   d 8 00 00 00 00 FF FF FF F4
 0.525230 1  258             Rx   d 8 00 00 00 01 FF FF FF CE
 0.525462 1  231             Rx   d 8 00 01 00 00 00 00 00 4F
 0.525737 1  311             Rx   d 8 FF FF FE BA FF FF FE 72
 0.525945 1  312             Rx   d 8 FF FF FE 94 FF FF FE 58
 0.526203 1  211             Rx   d 8 00 01 01 EF 00 00 00 00
 0.526341 1  291             Rx   d 3 00 00 00
 0.543078 1  221             Rx   d 8 00 00 00 00 00 00 00 00
 0.543359 1  281             Rx   d 8 00 00 00 00 00 00 00 00
 0.543564 1  271             Rx   d 8 00 00 00 00 00 00 00 00
 0.543810 1  241             Rx   d 8 AA 00 00 00 00 00 02 50
 0.544072 1  251             Rx   d 8 00 00 00 00 FF FF DF 26
 0.544319 1  252             Rx   d 8 00 00 00 01 FF FF DD 9F
 0.544538 1  253             Rx   d 8 00 00 00 00 00 00 23 98
 0.544783 1  263             Rx   d 8 01 ED 00 27 18 40 00 00
 0.545017 1  254             Rx   d 8 00 00 00 01 00 00 21 EA
 0.545280 1  255             Rx   d 8 FF FE 00 00 FF FF FF F0
 0.545535 1  256             Rx   d 8 00 00 00 02 00 00 00 02
 0.545784 1  257             Rx   d 8 00 00 00 00 FF FF FF F4
 0.545996 1  258             Rx   d 8 00 00 00 01 FF FF FF CE
 0.546278 1  268             Rx   d 8 01 E9 00 28 1C 40 00 00
 0.546490 1  231             Rx   d 8 00 01 00 00 00 00 00 50
 0.546746 1  311             Rx   d 8 FF FF FE BA FF FF FE 72
 0.546971 1  312             Rx   d 8 FF FF FE 94 FF FF FE 58
 0.547205 1  211             Rx   d 8 00 01 01 EF 00 00 00 00
 0.547404 1  291             Rx   d 3 00 00 00
 0.564093 1  221             Rx   d 8 00 00 00 00 00 00 00 00
 0.564331 1  281             Rx   d 8 00 00 00 00 00 00 00 00
 0.564585 1  271             Rx   d 8 00 00 00 00 00 00 00 00
 0.564835 1  241             Rx   d 8 AA 00 00 00 00 00 02 51
 0.565071 1  251             Rx   d 8 00 00 00 00 FF FF DF 27
 0.565320 1  252             Rx   d 8 00 00 00 01 FF FF DD 9E
 0.565563 1  253             Rx   d 8 00 00 00 00 00 00 23 98
 0.565784 1  254             Rx   d 8 00 00 00 02 00 00 21 EA
 0.566044 1  255             Rx   d 8 00 00 00 00 FF FF FF F0
 0.566288 1  265             Rx   d 8 01 E8 00 28 1C 40 00 00
 0.566538 1  256             Rx   d 8 00 00 00 03 00 00 00 02
 0.566785 1  257             Rx   d 8 00 00 00 00 FF FF FF F4
 0.567018 1  258             Rx   d 8 00 01 00 00 FF FF FF F9
 0.567254 1  231             Rx   d 8 00 01 00 00 00 00 00 51
 0.567513 1  311             Rx   d 8 FF FF FE BA FF FF FE 72
 0.567758 1  312             Rx   d 8 FF FF FE 94 FF FF FE 58
 0.567990 1  211             Rx   d 8 00 01 01 EF 00 00 00 00
 0.568145 1  291             Rx   d 3 00 00 00
 0.585126 1  221             Rx   d 8 00 00 00 00 00 00 00 00
 0.585330 1  281             Rx   d 8 00 00 00 00 00 00 00 00
 0.585562 1  271             Rx   d 8 00 00 00 00 00 00 00 00
 0.585788 1  241             Rx   d 8 AA 00 00 00 00 00 02 52
 0.586051 1  251             Rx   d 8 00 00 00 01 FF FF DF 26
 0.586336 1  252             Rx   d 8 00 00 00 00 FF FF DD 9F
 0.586535 1  262             Rx   d 8 01 EB 00 27 19 40 00 00
 0.586786 1  253             Rx   d 8 00 00 00 01 00 00 23 98
 0.587007 1  254             Rx   d 8 00 00 00 02 00 00 21 EA
 0.587294 1  255             Rx   d 8 00 00 00 00 FF FF FF F0
 0.587513 1  256             Rx   d 8 00 00 00 03 00 00 00 02
 0.587759 1  257             Rx   d 8 00 00 00 00 FF FF FF F4
 0.587994 1  267             Rx   d 8 01 E5 00 27 1B 40 00 00
 0.588254 1  258             Rx   d 8 00 04 00 00 00 00 00 01
 0.588487 1  231             Rx   d 8 00 01 00 00 00 00 00 52
 0.588734 1  311             Rx   d 8 FF FF FE BA FF FF FE 72
 0.588969 1  312             Rx   d 8 FF FF FE 94 FF FF FE 58
 0.589221 1  211             Rx   d 8 00 01 01 EF 00 00 00 00
 0.589338 1  291             Rx   d 3 00 00 00
 0.606117 1  221             Rx   d 8 00 00 00 00 00 00 00 00
 0.606336 1  281             Rx   d 8 00 00 00 00 00 00 00 00
 0.606580 1  271             Rx   d 8 00 00 00 00 00 00 00 00
 0.606839 1  241             Rx   d 8 AA 00 00 00 00 00 02 53
 0.607072 1  251             Rx   d 8 00 00 00 00 FF FF DF 26
 0.607331 1  252             Rx   d 8 00 00 00 02 FF FF DD 9F
 0.607563 1  253             Rx   d 8 00 00 00 01 00 00 23 98
 0.607783 1  254             Rx   d 8 00 00 00 01 00 00 21 EA
 0.608040 1  264             Rx   d 8 01 E5 00 27 19 40 00 00
 0.608309 1  255             Rx   d 8 00 00 00 00 FF FF FF F0
 0.608536 1  256             Rx   d 8 00 00 00 03 00 00 00 02
 0.608786 1  257             Rx   d 8 00 00 00 00 FF FF FF F4
 0.609043 1  258             Rx   d 8 00 02 00 00 00 00 00 10
 0.609286 1  231             Rx   d 8 00 01 00 00 00 00 00 53
 0.609510 1  311             Rx   d 8 FF FF FE BA FF FF FE 72
 0.609756 1  312             Rx   d 8 FF FF FE 94 FF FF FE 58
 0.610025 1  211             Rx   d 8 00 01 01 EF 00 00 00 00
 0.610166 1  291             Rx   d 3 00 00 00
 0.627130 1  221             Rx   d 8 00 00 00 00 00 00 00 00
 0.627441 1  281             Rx   d 8 00 00 00 00 00 00 00 00
 0.627563 1  271             Rx   d 8 00 00 00 00 00 00 00 00
 0.627784 1  241             Rx   d 8 AA 00 00 00 00 00 02 54
 0.628046 1  251             Rx   d 8 00 00 00 01 FF FF DF 27
 0.628316 1  261             Rx   d 8 01 E7 00 27 1C 40 00 00
 0.628509 1  252             Rx   d 8 00 00 00 01 FF FF DD 9E
 0.628754 1  253             Rx   d 8 00 00 00 01 00 00 23 98
 0.629016 1  254             Rx   d 8 00 00 00 01 00 00 21 EA
 0.629289 1  255             Rx   d 8 00 00 00 00 FF FF FF F0
 0.629505 1  256             Rx   d 8 00 00 00 03 00 00 00 02
 0.629754 1  266             Rx   d 8 01 E6 00 28 1C 40 00 00
 0.630009 1  257             Rx   d 8 00 00 00 00 FF FF FF F4
 0.630274 1  258             Rx   d 8 00 03 00 00 00 00 00 28
 0.630481 1  231             Rx   d 8 00 01 00 00 00 00 00 54
 0.630732 1  311             Rx   d 8 FF FF FE BA FF FF FE 72
 0.630965 1  312             Rx   d 8 FF FF FE 94 FF FF FE 58
 0.631198 1  211             Rx   d 8 00 01 01 EF 00 00 00 00
 0.631377 1  291             Rx   d 3 00 00 00
 0.648150 1  221             Rx   d 8 00 00 00 00 00 00 00 00
 0.648337 1  281             Rx   d 8 00 00 00 00 00 00 00 00
 0.648561 1  271             Rx   d 8 00 00 00 00 00 00 00 00
 0.648808 1  241             Rx   d 8 AA 00 00 00 00 00 02 55
 0.649066 1  251             Rx   d 8 00 00 00 00 FF FF DF 26
 0.649552 1  252             Rx   d 8 00 00 00 01 FF FF DD 9F
 0.649593 1  253             Rx   d 8 00 00 00 01 00 00 23 98
 0.649780 1  263             Rx   d 8 01 EC 00 27 19 40 00 00
 0.650041 1  254             Rx   d 8 00 00 00 02 00 00 21 EA
 0.650288 1  255             Rx   d 8 00 00 00 00 FF FF FF F0
 0.650563 1  256             Rx   d 8 00 00 00 03 00 00 00 02
 0.650786 1  257             Rx   d 8 00 00 00 00 FF FF FF F4
 0.651015 1  258             Rx   d 8 00 04 00 00 00 00 00 45
 0.651287 1  268             Rx   d 8 01 E9 00 28 1D 40 00 00
 0.651505 1  231             Rx   d 8 00 01 00 00 00 00 00 55
 0.651758 1  311             Rx   d 8 FF FF FE BA FF FF FE 72
 0.651990 1  312             Rx   d 8 FF FF FE 94 FF FF FE 58
 0.652207 1  211             Rx   d 8 00 01 01 EF 00 00 00 00
 0.652406 1  291             Rx   d 3 00 00 00
 0.669127 1  221             Rx   d 8 00 00 00 00 00 00 00 00
 0.669305 1  281             Rx   d 8 00 00 00 00 00 00 00 00
 0.669536 1  271             Rx   d 8 00 00 00 00 00 00 00 00
 0.669779 1  241             Rx   d 8 AA 00 00 00 00 00 02 56
 0.670042 1  251             Rx   d 8 00 00 00 01 FF FF DF 27
 0.670277 1  252             Rx   d 8 00 00 00 01 FF FF DD 9E
 0.670536 1  253             Rx   d 8 00 00 00 01 00 00 23 98
 0.670752 1  254             Rx   d 8 00 00 00 01 00 00 21 EA
 0.671040 1  255             Rx   d 8 00 00 00 00 FF FF FF F0
 0.671274 1  265             Rx   d 8 01 E8 00 28 1C 40 00 00
 0.671506 1  256             Rx   d 8 00 00 00 03 00 00 00 02
 0.671756 1  257             Rx   d 8 00 00 00 00 FF FF FF F4
 0.672012 1  258             Rx   d 8 00 02 00 00 00 00 00 46
 0.672249 1  231             Rx   d 8 00 01 00 00 00 00 00 56
 0.672480 1  311             Rx   d 8 FF FF FE BA FF FF FE 72
 0.672726 1  312             Rx   d 8 FF FF FE 94 FF FF FE 58
 0.672959 1  211             Rx   d 8 00 01 01 EF 00 00 00 00
 0.673113 1  291             Rx   d 3 00 00 00
 0.681334 1  361             Rx   d 8 19 64 13 1A FF FA 01 23
 0.681563 1  362             Rx   d 8 00 00 00 00 00 00 02 06
 0.690080 1  221             Rx   d 8 00 00 00 00 00 00 00 00
 0.690325 1  281             Rx   d 8 00 00 00 00 00 00 00 00
 0.690566 1  271             Rx   d 8 00 00 00 00 00 00 00 00
 0.690787 1  241             Rx   d 8 AA 00 00 00 00 00 02 57
 0.691047 1  251             Rx   d 8 00 00 00 04 FF FF DF 27
 0.691296 1  252             Rx   d 8 00 00 00 01 FF FF DD 9E
 0.691515 1  262             Rx   d 8 01 EB 00 27 19 40 00 00
 0.691761 1  253             Rx   d 8 00 00 00 01 00 00 23 98
 0.691991 1  254             Rx   d 8 00 00 00 01 00 00 21 EA
 0.692252 1  255             Rx   d 8 00 00 00 00 FF FF FF F0
 0.692512 1  256             Rx   d 8 00 00 00 03 00 00 00 02
 0.692761 1  257             Rx   d 8 00 00 00 00 FF FF FF F4
 0.692991 1  267             Rx   d 8 01 E5 00 27 1B 40 00 00
 0.693249 1  258             Rx   d 8 00 00 00 00 00 00 00 46
 0.693503 1  231             Rx   d 8 00 01 00 00 00 00 00 57
 0.693735 1  311             Rx   d 8 FF FF FE BA FF FF FE 72
 0.693965 1  312             Rx   d 8 FF FF FE 94 FF FF FE 58
 0.694219 1  211             Rx   d 8 00 01 01 EF 00 00 00 00
 0.694381 1  291             Rx   d 3 00 00 00
 0.694535 1  212             Rx   d 4 00 07 01 02
 0.711113 1  221             Rx   d 8 00 00 00 00 00 00 00 00
 0.711329 1  281             Rx   d 8 00 00 00 00 00 00 00 00
 0.711580 1  271             Rx   d 8 00 00 00 00 00 00 00 00
 0.711807 1  241             Rx   d 8 AA 00 00 00 00 00 02 58
 0.712065 1  251             Rx   d 8 00 00 00 04 FF FF DF 27
 0.712326 1  252             Rx   d 8 00 00 00 00 FF FF DD 9F
 0.712559 1  253             Rx   d 8 00 00 00 01 00 00 23 98
 0.712781 1  254             Rx   d 8 00 00 00 01 00 00 21 EA
 0.713039 1  264             Rx   d 8 01 E5 00 27 19 40 00 00
 0.713281 1  255             Rx   d 8 00 00 00 00 FF FF FF F0
 0.713532 1  256             Rx   d 8 00 00 00 03 00 00 00 02
 0.713781 1  257             Rx   d 8 00 00 00 00 FF FF FF F4
 0.714014 1  258             Rx   d 8 00 00 00 01 00 00 00 46
 0.714279 1  231             Rx   d 8 00 01 00 00 00 00 00 58
 0.714505 1  311             Rx   d 8 FF FF FE BA FF FF FE 72
 0.714755 1  312             Rx   d 8 FF FF FE 94 FF FF FE 58
 0.714988 1  211             Rx   d 8 00 01 01 EF 00 00 00 00
 0.715142 1  291             Rx   d 3 00 00 00
 0.732145 1  221             Rx   d 8 00 00 00 00 00 00 00 00
 0.732331 1  281             Rx   d 8 00 00 00 00 00 00 00 00
 0.732581 1  271             Rx   d 8 00 00 00 00 00 00 00 00
 0.732818 1  241             Rx   d 8 AA 00 00 00 00 00 02 59
 0.733066 1  251             Rx   d 8 00 00 00 03 FF FF DF 27
 0.733321 1  261             Rx   d 8 01 E7 00 27 1C 40 00 00
 0.733557 1  252             Rx   d 8 00 00 00 01 FF FF DD 9E
 0.733781 1  253             Rx   d 8 00 00 00 01 00 00 23 98
 0.734040 1  254             Rx   d 8 00 00 00 01 00 00 21 EA
 0.734279 1  255             Rx   d 8 00 00 00 00 FF FF FF F0
 0.734531 1  256             Rx   d 8 00 00 00 03 00 00 00 02
 0.734780 1  266             Rx   d 8 01 E6 00 28 1D 40 00 00
 0.735013 1  257             Rx   d 8 00 00 00 00 FF FF FF F4
 0.735276 1  258             Rx   d 8 00 00 00 01 00 00 00 46
 0.735502 1  231             Rx   d 8 00 01 00 00 00 00 00 59
 0.735755 1  311             Rx   d 8 FF FF FE BA FF FF FE 72
 0.735988 1  312             Rx   d 8 FF FF FE 94 FF FF FE 58
 0.736220 1  211             Rx   d 8 00 01 01 EF 00 00 00 00
 0.736401 1  291             Rx   d 3 00 00 00
 0.753098 1  221             Rx   d 8 00 00 00 00 00 00 00 00
 0.753328 1  281             Rx   d 8 00 00 00 00 00 00 00 00
 0.753559 1  271             Rx   d 8 00 00 00 00 00 00 00 00
 0.753832 1  241             Rx   d 8 AA 00 00 00 00 00 02 5A
 0.754064 1  251             Rx   d 8 00 00 00 02 FF FF DF 27
 0.754284 1  252             Rx   d 8 00 00 00 01 FF FF DD 9F
 0.754557 1  253             Rx   d 8 00 00 00 01 00 00 23 98
 0.754780 1  263             Rx   d 8 01 EC 00 27 18 40 00 00
 0.755038 1  254             Rx   d 8 00 00 00 02 00 00 21 EA
 0.755273 1  255             Rx   d 8 00 00 00 00 FF FF FF F0
 0.755551 1  256             Rx   d 8 00 00 00 03 00 00 00 02
 0.755781 1  257             Rx   d 8 00 00 00 00 FF FF FF F4
 0.756039 1  258             Rx   d 8 00 00 00 02 00 00 00 46
 0.756287 1  268             Rx   d 8 01 E9 00 28 1D 40 00 00
 0.756503 1  231             Rx   d 8 00 01 00 00 00 00 00 5A
 0.756755 1  311             Rx   d 8 FF FF FE BA FF FF FE 72
 0.756988 1  312             Rx   d 8 FF FF FE 94 FF FF FE 58
 0.757246 1  211             Rx   d 8 00 01 01 EF 00 00 00 00
 0.757401 1  291             Rx   d 3 00 00 00
 0.774117 1  221             Rx   d 8 00 00 00 00 00 00 00 00
 0.774337 1  281             Rx   d 8 00 00 00 00 00 00 00 00
 0.774587 1  271             Rx   d 8 00 00 00 00 00 00 00 00
 0.774831 1  241             Rx   d 8 AA 00 00 00 00 00 02 5B
 0.775064 1  251             Rx   d 8 00 00 00 04 FF FF DF 26
 0.775322 1  252             Rx   d 8 00 00 00 00 FF FF DD 9F
 0.775556 1  253             Rx   d 8 00 00 00 01 00 00 23 98
 0.775780 1  254             Rx   d 8 00 00 00 02 00 00 21 EA
 0.776038 1  255             Rx   d 8 00 00 00 00 FF FF FF F0
 0.776298 1  265             Rx   d 8 01 E8 00 28 1C 40 00 00
 0.776538 1  256             Rx   d 8 00 00 00 03 00 00 00 02
 0.776781 1  257             Rx   d 8 00 00 00 00 FF FF FF F4
 0.777013 1  258             Rx   d 8 00 00 00 02 00 00 00 46
 0.777271 1  231             Rx   d 8 00 01 00 00 00 00 00 5B
 0.777505 1  311             Rx   d 8 FF FF FE BA FF FF FE 72
 0.777754 1  312             Rx   d 8 FF FF FE 94 FF FF FE 58
 0.777987 1  211             Rx   d 8 00 01 01 EF 00 00 00 00
 0.778142 1  291             Rx   d 3 00 00 00
 0.795101 1  221             Rx   d 8 00 00 00 00 00 00 00 00
 0.795327 1  281             Rx   d 8 00 00 00 00 00 00 00 00
 0.795559 1  271             Rx   d 8 00 00 00 00 00 00 00 00
 0.795832 1  241             Rx   d 8 AA 00 00 00 00 00 02 5C
 0.796064 1  251             Rx   d 8 00 00 00 04 FF FF DF 26
 0.796324 1  252             Rx   d 8 00 00 00 00 FF FF DD 9F
 0.796556 1  262             Rx   d 8 01 EB 00 27 19 40 00 00
 0.796780 1  253             Rx   d 8 00 00 00 00 00 00 23 98
 0.797039 1  254             Rx   d 8 00 00 00 02 00 00 21 EA
 0.797271 1  255             Rx   d 8 00 00 00 00 FF FF FF F0
 0.797530 1  256             Rx   d 8 00 00 00 03 00 00 00 02
 0.797780 1  257             Rx   d 8 00 00 00 00 FF FF FF F4
 0.798012 1  267             Rx   d 8 01 E5 00 27 1B 40 00 00
 0.798270 1  258             Rx   d 8 00 00 00 02 00 00 00 46
 0.798528 1  231             Rx   d 8 00 01 00 00 00 00 00 5C
 0.798754 1  311             Rx   d 8 FF FF FE BA FF FF FE 72
 0.798987 1  312             Rx   d 8 FF FF FE 94 FF FF FE 58
 0.799219 1  211             Rx   d 8 00 01 01 EF 00 00 00 00
 0.799400 1  291             Rx   d 3 00 00 00
 0.816125 1  221             Rx   d 8 00 00 00 00 00 00 00 00
 0.816351 1  281             Rx   d 8 00 00 00 00 00 00 00 00
 0.816582 1  271             Rx   d 8 00 00 00 00 00 00 00 00
 0.816832 1  241             Rx   d 8 AA 00 00 00 00 00 02 5D
 0.817066 1  251             Rx   d 8 00 00 00 03 FF FF DF 27
 0.817317 1  252             Rx   d 8 00 00 00 01 FF FF DD 9F
 0.817556 1  253             Rx   d 8 00 00 00 01 00 00 23 98
 0.817805 1  254             Rx   d 8 00 00 00 02 00 00 21 EA
 0.818036 1  264             Rx   d 8 01 E5 00 27 19 40 00 00
 0.818284 1  255             Rx   d 8 00 00 00 00 FF FF FF F0
 0.818511 1  256             Rx   d 8 00 00 00 03 00 00 00 02
 0.818782 1  257             Rx   d 8 00 00 00 00 FF FF FF F4
 0.819033 1  258             Rx   d 8 FF FD 00 02 00 00 00 21
 0.819273 1  231             Rx   d 8 00 01 00 00 00 00 00 5D
 0.819507 1  311             Rx   d 8 FF FF FE BA FF FF FE 72
 0.819754 1  312             Rx   d 8 FF FF FE 94 FF FF FE 58
 0.819966 1  211             Rx   d 8 00 01 01 EF 00 00 00 00
 0.820146 1  291             Rx   d 3 00 00 00
 0.837125 1  221             Rx   d 8 00 00 00 00 00 00 00 00
 0.837301 1  281             Rx   d 8 00 00 00 00 00 00 00 00
 0.837559 1  271             Rx   d 8 00 00 00 00 00 00 00 00
 0.837806 1  241             Rx   d 8 AA 00 00 00 00 00 02 5E
 0.838061 1  251             Rx   d 8 00 00 00 03 FF FF DF 26
 0.838294 1  261             Rx   d 8 01 E7 00 27 19 40 00 00
 0.838551 1  252             Rx   d 8 00 00 00 00 FF FF DD 9E
 0.838782 1  253             Rx   d 8 00 00 00 01 00 00 23 98
 0.839014 1  254             Rx   d 8 00 00 00 02 00 00 21 EA
 0.839289 1  255             Rx   d 8 00 00 00 00 FF FF FF F0
 0.839509 1  256             Rx   d 8 00 00 00 03 00 00 00 02
 0.839754 1  266             Rx   d 8 01 E6 00 28 1C 40 00 00
 0.840013 1  257             Rx   d 8 00 00 00 00 FF FF FF F4
 0.840245 1  258             Rx   d 8 FF FD 00 01 00 00 00 0C
 0.840519 1  231             Rx   d 8 00 01 00 00 00 00 00 5E
 0.840728 1  311             Rx   d 8 FF FF FE BA FF FF FE 72
 0.840961 1  312             Rx   d 8 FF FF FE 94 FF FF FE 58
 0.841220 1  211             Rx   d 8 00 01 01 EF 00 00 00 00
 0.841374 1  291             Rx   d 3 00 00 00
 0.858147 1  221             Rx   d 8 00 00 00 00 00 00 00 00
 0.858301 1  281             Rx   d 8 00 00 00 00 00 00 00 00
 0.858596 1  271             Rx   d 8 00 00 00 00 00 00 00 00
 0.858802 1  241             Rx   d 8 AA 00 00 00 00 00 02 5F
 0.859037 1  251             Rx   d 8 00 00 00 04 FF FF DF 26
 0.859294 1  252             Rx   d 8 00 00 00 00 FF FF DD 9F
 0.859579 1  253             Rx   d 8 00 00 00 01 00 00 23 98
 0.859776 1  263             Rx   d 8 01 ED 00 27 19 40 00 00
 0.860012 1  254             Rx   d 8 00 00 00 01 00 00 21 EA
 0.860242 1  255             Rx   d 8 00 00 00 00 FF FF FF F0
 0.860503 1  256             Rx   d 8 00 00 00 03 00 00 00 02
 0.860755 1  257             Rx   d 8 00 00 00 00 FF FF FF F4
 0.860988 1  258             Rx   d 8 FF FC 00 00 FF FF FF EC
 0.861249 1  268             Rx   d 8 01 E9 00 28 1D 40 00 00
 0.861482 1  231             Rx   d 8 00 01 00 00 00 00 00 5F
 0.861728 1  311             Rx   d 8 FF FF FE BA FF FF FE 72
 0.861958 1  312             Rx   d 8 FF FF FE 94 FF FF FE 58
 0.862191 1  211             Rx   d 8 00 01 01 EF 00 00 00 00
 0.862371 1  291             Rx   d 3 00 00 00
 0.879151 1  221             Rx   d 8 00 00 00 00 00 00 00 00
 0.879320 1  281             Rx   d 8 00 00 00 00 00 00 00 00
 0.879572 1  271             Rx   d 8 00 00 00 00 00 00 00 00
 0.879811 1  241             Rx   d 8 AA 00 00 00 00 00 02 60
 0.880046 1  251             Rx   d 8 00 00 00 04 FF FF DF 27
 0.880321 1  252             Rx   d 8 00 00 00 00 FF FF DD 9E
 0.880535 1  253             Rx   d 8 00 00 00 01 00 00 23 98
 0.880757 1  254             Rx   d 8 00 00 00 02 00 00 21 EA
 0.881015 1  255             Rx   d 8 00 00 00 00 FF FF FF F0
 0.881288 1  265             Rx   d 8 01 E8 00 28 1C 40 00 00
 0.881504 1  256             Rx   d 8 00 00 00 03 00 00 00 02
 0.881756 1  257             Rx   d 8 00 04 00 00 00 00 00 22
 0.882016 1  258             Rx   d 8 FF FB 00 02 FF FF FF CD
 0.882248 1  231             Rx   d 8 00 01 00 00 00 00 00 60
 0.882480 1  311             Rx   d 8 FF FF FE BA FF FF FE 72
 0.882732 1  312             Rx   d 8 FF FF FE 94 FF FF FE 58
 0.882964 1  211             Rx   d 8 00 01 01 EF 00 00 00 00
 0.883117 1  291             Rx   d 3 00 00 00
 0.900129 1  221             Rx   d 8 00 00 00 00 00 00 00 00
 0.900322 1  281             Rx   d 8 00 00 00 00 00 00 00 00
 0.900575 1  271             Rx   d 8 00 00 00 00 00 00 00 00
 0.900828 1  241             Rx   d 8 AA 00 00 00 00 00 02 61
 0.901067 1  251             Rx   d 8 00 00 00 03 FF FF DF 26
 0.901323 1  252             Rx   d 8 00 00 00 01 FF FF DD 9F
 0.901558 1  262             Rx   d 8 01 EB 00 27 19 40 00 00
 0.901804 1  253             Rx   d 8 00 00 00 00 00 00 23 98
 0.902036 1  254             Rx   d 8 00 00 00 01 00 00 21 EA
 0.902300 1  255             Rx   d 8 00 00 00 00 FF FF FF F0
 0.902528 1  256             Rx   d 8 00 00 00 03 00 00 00 02
 0.902778 1  257             Rx   d 8 00 04 00 00 00 00 00 22
 0.903036 1  267             Rx   d 8 01 E5 00 27 1B 40 00 00
 0.903274 1  258             Rx   d 8 FF FD 00 00 FF FF FF CD
 0.903528 1  231             Rx   d 8 00 01 00 00 00 00 00 61
 0.903753 1  311             Rx   d 8 FF FF FE BA FF FF FE 72
 0.903995 1  312             Rx   d 8 FF FF FE 94 FF FF FE 58
 0.904222 1  211             Rx   d 8 00 01 01 EF 00 00 00 00
 0.904403 1  291             Rx   d 3 00 00 00
 0.921211 1  221             Rx   d 8 00 00 00 00 00 00 00 00
 0.921350 1  281             Rx   d 8 00 00 00 00 00 00 00 00
 0.921577 1  271             Rx   d 8 00 00 00 00 00 00 00 00
 0.921830 1  241             Rx   d 8 AA 00 00 00 00 00 02 62
 0.922092 1  251             Rx   d 8 00 00 00 04 FF FF DF 26
 0.922308 1  252             Rx   d 8 00 00 00 00 FF FF DD 9F
 0.922709 1  253             Rx   d 8 00 00 00 00 00 00 23 98
 0.923084 1  254             Rx   d 8 00 00 00 01 00 00 21 EA
 0.923088 1  264             Rx   d 8 01 E5 00 27 19 40 00 00
 0.923297 1  255             Rx   d 8 00 00 00 00 FF FF FF F0
 0.923529 1  256             Rx   d 8 00 00 00 03 00 00 00 02
 0.923776 1  257             Rx   d 8 00 02 00 00 00 00 00 22
 0.924010 1  258             Rx   d 8 00 00 00 00 FF FF FF CD
 0.924275 1  231             Rx   d 8 00 01 00 00 00 00 00 62
 0.924600 1  311             Rx   d 8 FF FF FE BA FF FF FE 72
 0.924773 1  312             Rx   d 8 FF FF FE 94 FF FF FE 58
 0.924982 1  211             Rx   d 8 00 01 01 EF 00 00 00 00
 0.925135 1  291             Rx   d 3 00 00 00
 0.942210 1  221             Rx   d 8 00 00 00 00 00 00 00 00
 0.942339 1  281             Rx   d 8 00 00 00 00 00 00 00 00
 0.942584 1  271             Rx   d 8 00 00 00 00 00 00 00 00
 0.942827 1  241             Rx   d 8 AA 00 00 00 00 00 02 63
 0.943063 1  251             Rx   d 8 00 00 00 03 FF FF DF 27
 0.943318 1  261             Rx   d 8 01 E7 00 27 19 40 00 00
 0.943687 1  252             Rx   d 8 00 00 00 00 FF FF DD 9E
 0.943779 1  253             Rx   d 8 00 00 00 02 00 00 23 98
 0.944040 1  254             Rx   d 8 00 00 00 01 00 00 21 EA
 0.944297 1  255             Rx   d 8 00 00 00 00 FF FF FF F0
 0.944531 1  256             Rx   d 8 00 00 00 03 00 00 00 02
 0.944886 1  266             Rx   d 8 01 E6 00 28 1C 40 00 00
 0.945045 1  257             Rx   d 8 00 00 00 00 00 00 00 22
 0.945289 1  258             Rx   d 8 00 00 00 00 FF FF FF CD
 0.945501 1  231             Rx   d 8 00 01 00 00 00 00 00 63
 0.945795 1  311             Rx   d 8 FF FF FE BA FF FF FE 72
 0.945966 1  312             Rx   d 8 FF FF FE 94 FF FF FE 58
 0.946219 1  211             Rx   d 8 00 01 01 EF 00 00 00 00
 0.946505 1  291             Rx   d 3 00 00 00
 0.963137 1  221             Rx   d 8 00 00 00 00 00 00 00 00
 0.963327 1  281             Rx   d 8 00 00 00 00 00 00 00 00
 0.963582 1  271             Rx   d 8 00 00 00 00 00 00 00 00
 0.963829 1  241             Rx   d 8 AA 00 00 00 00 00 02 64
 0.964062 1  251             Rx   d 8 00 00 00 03 FF FF DF 27
 0.964312 1  252             Rx   d 8 00 00 00 01 FF FF DD 9F
 0.964566 1  253             Rx   d 8 00 00 00 01 00 00 23 99
 0.964777 1  263             Rx   d 8 01 ED 00 27 18 40 00 00
 0.965035 1  254             Rx   d 8 00 00 00 01 00 00 21 EA
 0.965263 1  255             Rx   d 8 00 00 00 00 FF FF FF F0
 0.965527 1  256             Rx   d 8 00 00 00 03 00 00 00 02
 0.965778 1  257             Rx   d 8 00 00 00 00 00 00 00 22
 0.966034 1  258             Rx   d 8 00 00 00 00 FF FF FF CD
 0.966276 1  268             Rx   d 8 01 E9 00 28 1D 40 00 00
 0.966520 1  231             Rx   d 8 00 01 00 00 00 00 00 64
 0.966793 1  311             Rx   d 8 FF FF FE BA FF FF FE 72
 0.966988 1  312             Rx   d 8 FF FF FE 94 FF FF FE 58
 0.967279 1  211             Rx   d 8 00 01 01 EF 00 00 00 00
 0.967432 1  291             Rx   d 3 00 00 00
 0.984158 1  221             Rx   d 8 00 00 00 00 00 00 00 00
 0.984322 1  281             Rx   d 8 00 00 00 00 00 00 00 00
 0.984581 1  271             Rx   d 8 00 00 00 00 00 00 00 00
 0.984828 1  241             Rx   d 8 AA 00 00 00 00 00 02 65
 0.985060 1  251             Rx   d 8 00 00 00 02 FF FF DF 27
 0.985320 1  252             Rx   d 8 00 00 00 00 FF FF DD 9E
 0.985579 1  253             Rx   d 8 00 00 00 01 00 00 23 98
 0.985804 1  254             Rx   d 8 00 00 00 01 00 00 21 EA
 0.986035 1  255             Rx   d 8 00 00 00 00 FF FF FF F0
 0.986308 1  265             Rx   d 8 01 E8 00 28 1C 40 00 00
 0.986548 1  256             Rx   d 8 00 00 00 03 00 00 00 02
 0.986804 1  257             Rx   d 8 00 00 00 00 00 00 00 22
 0.987036 1  258             Rx   d 8 00 00 00 00 FF FF FF CD
 0.987287 1  231             Rx   d 8 00 01 00 00 00 00 00 65
 0.987578 1  311             Rx   d 8 FF FF FE BA FF FF FE 72
 0.987750 1  312             Rx   d 8 FF FF FE 94 FF FF FE 58
 0.988003 1  211             Rx   d 8 00 01 01 EF 00 00 00 00
 0.988163 1  291             Rx   d 3 00 00 00
 1.005096 1  221             Rx   d 8 00 00 00 00 00 00 00 00
 1.005345 1  281             Rx   d 8 00 00 00 00 00 00 00 00
 1.005593 1  271             Rx   d 8 00 00 00 00 00 00 00 00
 1.005803 1  241             Rx   d 8 AA 00 00 00 00 00 02 66
 1.006061 1  251             Rx   d 8 00 00 00 05 FF FF DF 27
 1.006299 1  252             Rx   d 8 00 00 00 00 FF FF DD 9F
 1.006553 1  262             Rx   d 8 01 EB 00 27 19 40 00 00
 1.006803 1  253             Rx   d 8 00 00 00 00 00 00 23 99
 1.007035 1  254             Rx   d 8 00 00 00 02 00 00 21 EA
 1.007282 1  255             Rx   d 8 00 00 00 01 FF FF FF F0
 1.007526 1  256             Rx   d 8 00 00 00 03 00 00 00 02
 1.007776 1  257             Rx   d 8 00 00 00 00 00 00 00 22
 1.008007 1  267             Rx   d 8 01 E5 00 27 1B 40 00 00
 1.008266 1  258             Rx   d 8 00 00 00 00 FF FF FF CD
 1.008499 1  231             Rx   d 8 00 01 00 00 00 00 00 66
 1.008747 1  311             Rx   d 8 FF FF FE BA FF FF FE 72
 1.008982 1  312             Rx   d 8 FF FF FE 94 FF FF FE 58
 1.009241 1  211             Rx   d 8 00 01 01 EF 00 00 00 00
 1.009388 1  291             Rx   d 3 00 00 00
 1.026095 1  221             Rx   d 8 00 00 00 00 00 00 00 00
 1.026325 1  281             Rx   d 8 00 00 00 00 00 00 00 00
 1.026575 1  271             Rx   d 8 00 00 00 00 00 00 00 00
 1.026828 1  241             Rx   d 8 AA 00 00 00 00 00 02 67
 1.027061 1  251             Rx   d 8 00 00 00 00 FF FF DF 26
 1.027320 1  252             Rx   d 8 00 00 00 00 FF FF DD 9F
 1.027552 1  253             Rx   d 8 00 00 00 01 00 00 23 98
 1.027802 1  254             Rx   d 8 00 00 00 02 00 00 21 EA
 1.028034 1  264             Rx   d 8 01 E5 00 27 19 40 00 00
 1.028297 1  255             Rx   d 8 00 00 00 01 FF FF FF F0
 1.028552 1  256             Rx   d 8 00 00 00 03 00 00 00 02
 1.028761 1  257             Rx   d 8 00 00 00 01 00 00 00 22
 1.029034 1  258             Rx   d 8 00 00 00 00 FF FF FF CD
 1.029271 1  231             Rx   d 8 00 01 00 00 00 00 00 67
 1.029525 1  311             Rx   d 8 FF FF FE BA FF FF FE 72
 1.029751 1  312             Rx   d 8 FF FF FE 94 FF FF FE 58
 1.029983 1  211             Rx   d 8 00 01 01 EF 00 00 00 00
 1.030162 1  291             Rx   d 3 00 00 00
 1.047121 1  221             Rx   d 8 00 00 00 00 00 00 00 00
 1.047321 1  281             Rx   d 8 00 00 00 00 00 00 00 00
 1.047574 1  271             Rx   d 8 00 00 00 00 00 00 00 00
 1.047835 1  241             Rx   d 8 AA 00 00 00 00 00 02 68
 1.048059 1  251             Rx   d 8 00 00 00 04 FF FF DF 27
 1.048315 1  261             Rx   d 8 01 E7 00 27 19 40 00 00
 1.048551 1  252             Rx   d 8 00 00 00 00 FF FF DD 9F
 1.048801 1  253             Rx   d 8 00 00 00 00 00 00 23 98
 1.049033 1  254             Rx   d 8 00 00 00 01 00 00 21 EA
 1.049282 1  255             Rx   d 8 00 00 00 01 FF FF FF F0
 1.049525 1  256             Rx   d 8 00 00 00 03 00 00 00 02
 1.049783 1  266             Rx   d 8 01 E6 00 28 1D 40 00 00
 1.050008 1  257             Rx   d 8 00 00 00 01 00 00 00 22
 1.050270 1  258             Rx   d 8 00 00 00 00 FF FF FF CD
 1.050527 1  231             Rx   d 8 00 01 00 00 00 00 00 68
 1.050750 1  311             Rx   d 8 FF FF FE BA FF FF FE 72
 1.051009 1  312             Rx   d 8 FF FF FE 94 FF FF FE 58
 1.051242 1  211             Rx   d 8 00 01 01 EF 00 00 00 00
 1.051415 1  291             Rx   d 3 00 00 00
 1.068092 1  221             Rx   d 8 00 00 00 00 00 00 00 00
 1.068345 1  281             Rx   d 8 00 00 00 00 00 00 00 00
 1.068572 1  271             Rx   d 8 00 00 00 00 00 00 00 00
 1.068798 1  241             Rx   d 8 AA 00 00 00 00 00 02 69
 1.069040 1  251             Rx   d 8 00 00 00 00 FF FF DF 26
 1.069299 1  252             Rx   d 8 00 00 00 00 FF FF DD 9F
 1.069550 1  253             Rx   d 8 00 00 00 01 00 00 23 98
 1.069753 1  263             Rx   d 8 01 EC 00 27 18 40 00 00
 1.070014 1  254             Rx   d 8 00 00 00 01 00 00 21 EA
 1.070247 1  255             Rx   d 8 00 00 00 01 FF FF FF F0
 1.070505 1  256             Rx   d 8 00 00 00 03 00 00 00 02
 1.070775 1  257             Rx   d 8 00 00 00 01 00 00 00 22
 1.070988 1  258             Rx   d 8 00 00 00 00 FF FF FF CD
 1.071266 1  268             Rx   d 8 01 E9 00 28 1C 40 00 00
 1.071497 1  231             Rx   d 8 00 01 00 00 00 00 00 69
 1.071747 1  311             Rx   d 8 FF FF FE BA FF FF FE 72
 1.071964 1  312             Rx   d 8 FF FF FE 94 FF FF FE 58
 1.072197 1  211             Rx   d 8 00 01 01 EF 00 00 00 00
 1.072394 1  291             Rx   d 3 00 00 00
 1.082358 1  361             Rx   d 8 19 64 13 1A FF FA 01 23
 1.082601 1  362             Rx   d 8 00 00 00 00 00 00 02 06
 1.089118 1  221             Rx   d 8 00 00 00 00 00 00 00 00
 1.089298 1  281             Rx   d 8 00 00 00 00 00 00 00 00
 1.089569 1  271             Rx   d 8 00 00 00 00 00 00 00 00
 1.089806 1  241             Rx   d 8 AA 00 00 00 00 00 02 6A
 1.090038 1  251             Rx   d 8 00 00 00 05 FF FF DF 26
 1.090296 1  252             Rx   d 8 00 00 00 00 FF FF DD 9E
 1.090529 1  253             Rx   d 8 00 00 00 01 00 00 23 98
 1.090754 1  254             Rx   d 8 00 00 00 02 00 00 21 EA
 1.091032 1  255             Rx   d 8 00 00 00 01 FF FF FF F0
 1.091285 1  265             Rx   d 8 01 E8 00 28 1C 40 00 00
 1.091502 1  256             Rx   d 8 00 00 00 03 00 00 00 02
 1.091755 1  257             Rx   d 8 00 00 00 02 00 00 00 22
 1.092014 1  258             Rx   d 8 00 00 00 00 FF FF FF CD
 1.092246 1  231             Rx   d 8 00 01 00 00 00 00 00 6A
 1.092524 1  311             Rx   d 8 FF FF FE BA FF FF FE 72
 1.092748 1  312             Rx   d 8 FF FF FE 94 FF FF FE 58
 1.092963 1  211             Rx   d 8 00 01 01 EF 00 00 00 00
 1.093136 1  291             Rx   d 3 00 00 00
 1.110096 1  221             Rx   d 8 00 00 00 00 00 00 00 00
 1.110322 1  281             Rx   d 8 00 00 00 00 00 00 00 00
 1.110553 1  271             Rx   d 8 00 00 00 00 00 00 00 00
 1.110802 1  241             Rx   d 8 AA 00 00 00 00 00 02 6B
 1.111033 1  251             Rx   d 8 00 00 00 00 FF FF DF 27
 1.111294 1  252             Rx   d 8 00 00 00 00 FF FF DD 9E
 1.111525 1  262             Rx   d 8 01 EB 00 27 19 40 00 00
 1.111775 1  253             Rx   d 8 00 00 00 00 00 00 23 98
 1.112007 1  254             Rx   d 8 00 00 00 02 00 00 21 EA
 1.112272 1  255             Rx   d 8 00 00 00 01 FF FF FF F0
 1.112500 1  256             Rx   d 8 00 00 00 03 00 00 00 02
 1.112748 1  257             Rx   d 8 00 00 00 01 00 00 00 22
 1.112981 1  267             Rx   d 8 01 E5 00 27 1B 40 00 00
 1.113240 1  258             Rx   d 8 00 00 00 01 FF FF FF CD
 1.113474 1  231             Rx   d 8 00 01 00 00 00 00 00 6B
 1.113724 1  311             Rx   d 8 FF FF FE BA FF FF FE 72
 1.113957 1  312             Rx   d 8 FF FF FE 94 FF FF FE 58
 1.114237 1  211             Rx   d 8 00 01 01 EF 00 00 00 00
 1.114349 1  291             Rx   d 3 00 00 00
 1.131213 1  221             Rx   d 8 00 00 00 00 00 00 00 00
 1.131426 1  281             Rx   d 8 00 00 00 00 00 00 00 00
 1.131549 1  271             Rx   d 8 00 00 00 00 00 00 00 00
 1.131798 1  241             Rx   d 8 AA 00 00 00 00 00 02 6C
 1.132036 1  251             Rx   d 8 00 00 00 06 FF FF DF 26
 1.132295 1  252             Rx   d 8 00 00 00 00 FF FF DD 9E
 1.132524 1  253             Rx   d 8 00 00 00 01 00 00 23 98
 1.132771 1  254             Rx   d 8 00 00 00 02 00 00 21 EA
 1.133033 1  264             Rx   d 8 01 E5 00 27 1C 40 00 00
 1.133266 1  255             Rx   d 8 00 00 00 01 FF FF FF F0
 1.133499 1  256             Rx   d 8 00 00 00 03 00 00 00 02
 1.133744 1  257             Rx   d 8 00 00 00 02 00 00 00 22
 1.134002 1  258             Rx   d 8 00 00 00 01 FF FF FF CD
 1.134236 1  231             Rx   d 8 00 01 00 00 00 00 00 6C
 1.134468 1  311             Rx   d 8 FF FF FE BA FF FF FE 72
 1.134720 1  312             Rx   d 8 FF FF FE 94 FF FF FE 58
 1.134978 1  211             Rx   d 8 00 01 01 EF 00 00 00 00
 1.135106 1  291             Rx   d 3 00 00 00
 1.152130 1  221             Rx   d 8 00 00 00 00 00 00 00 00
 1.152325 1  281             Rx   d 8 00 00 00 00 00 00 00 00
 1.152582 1  271             Rx   d 8 00 00 00 00 00 00 00 00
 1.152824 1  241             Rx   d 8 AA 00 00 00 00 00 02 6D
 1.153057 1  251             Rx   d 8 00 00 00 00 FF FF DF 26
 1.153317 1  261             Rx   d 8 01 E7 00 27 19 40 00 00
 1.153549 1  252             Rx   d 8 00 00 00 00 FF FF DD 9E
 1.153800 1  253             Rx   d 8 00 00 00 01 00 00 23 98
 1.154033 1  254             Rx   d 8 00 00 00 02 00 00 21 EA
 1.154282 1  255             Rx   d 8 00 00 00 01 FF FF FF F0
 1.154549 1  256             Rx   d 8 00 00 00 03 00 00 00 02
 1.154774 1  266             Rx   d 8 01 E6 00 28 1D 40 00 00
 1.155006 1  257             Rx   d 8 00 00 00 02 00 00 00 22
 1.155266 1  258             Rx   d 8 00 00 00 01 FF FF FF CD
 1.155498 1  231             Rx   d 8 00 01 00 00 00 00 00 6D
 1.155748 1  311             Rx   d 8 FF FF FE BA FF FF FE 72
 1.155980 1  312             Rx   d 8 FF FF FE 94 FF FF FE 58
 1.156215 1  211             Rx   d 8 00 01 01 EF 00 00 00 00
 1.156395 1  291             Rx   d 3 00 00 00
 1.173160 1  221             Rx   d 8 00 00 00 00 00 00 00 00
 1.173323 1  281             Rx   d 8 00 00 00 00 00 00 00 00
 1.173591 1  271             Rx   d 8 00 00 00 00 00 00 00 00
 1.173803 1  241             Rx   d 8 AA 00 00 00 00 00 02 6E
 1.174058 1  251             Rx   d 8 00 00 00 00 FF FF DF 27
 1.174311 1  252             Rx   d 8 00 00 00 00 FF FF DD 9F
 1.174549 1  253             Rx   d 8 00 00 00 00 00 00 23 98
 1.174773 1  263             Rx   d 8 01 EC 00 27 18 40 00 00
 1.175038 1  254             Rx   d 8 00 00 00 01 00 00 21 EA
 1.175264 1  255             Rx   d 8 00 00 00 01 FF FF FF F0
 1.175523 1  256             Rx   d 8 00 00 00 03 00 00 00 02
 1.175773 1  257             Rx   d 8 00 00 00 02 00 00 00 22
 1.176005 1  258             Rx   d 8 00 03 00 00 FF FF FF FB
 1.176247 1  268             Rx   d 8 01 E9 00 28 1D 40 00 00
 1.176497 1  231             Rx   d 8 00 01 00 00 00 00 00 6E
 1.176748 1  311             Rx   d 8 FF FF FE BA FF FF FE 72
 1.176980 1  312             Rx   d 8 FF FF FE 94 FF FF FE 58
 1.177245 1  211             Rx   d 8 00 01 01 EF 00 00 00 00
 1.177369 1  291             Rx   d 3 00 00 00
 1.194121 1  221             Rx   d 8 00 00 00 00 00 00 00 00
 1.194328 1  281             Rx   d 8 00 00 00 00 00 00 00 00
 1.194598 1  271             Rx   d 8 00 00 00 00 00 00 00 00
 1.194825 1  241             Rx   d 8 AA 00 00 00 00 00 02 6F
 1.195057 1  251             Rx   d 8 00 00 00 00 FF FF DF 27
 1.195319 1  252             Rx   d 8 00 00 00 00 FF FF DD 9F
 1.195550 1  253             Rx   d 8 00 00 00 01 00 00 23 98
 1.195809 1  254             Rx   d 8 00 00 00 00 00 00 21 EA
 1.196033 1  255             Rx   d 8 00 00 00 01 FF FF FF F0
 1.196293 1  265             Rx   d 8 01 E8 00 28 1C 40 00 00
 1.196522 1  256             Rx   d 8 00 00 00 04 00 00 00 02
 1.196773 1  257             Rx   d 8 00 00 00 02 00 00 00 22
 1.197031 1  258             Rx   d 8 00 03 00 00 00 00 00 07
 1.197278 1  231             Rx   d 8 00 01 00 00 00 00 00 6F
 1.197523 1  311             Rx   d 8 FF FF FE BA FF FF FE 72
 1.197748 1  312             Rx   d 8 FF FF FE 94 FF FF FE 58
 1.197981 1  211             Rx   d 8 00 01 01 EF 00 00 00 00
 1.198160 1  291             Rx   d 3 00 00 00
 1.215158 1  221             Rx   d 8 00 00 00 00 00 00 00 00
 1.215328 1  281             Rx   d 8 00 00 00 00 00 00 00 00
 1.215573 1  271             Rx   d 8 00 00 00 00 00 00 00 00
 1.215845 1  241             Rx   d 8 AA 00 00 00 00 00 02 70
 1.216061 1  251             Rx   d 8 00 00 00 00 FF FF DF 27
 1.216295 1  252             Rx   d 8 00 00 00 00 FF FF DD 9F
 1.216553 1  262             Rx   d 8 01 EB 00 27 19 40 00 00
 1.216799 1  253             Rx   d 8 00 00 00 01 00 00 23 98
 1.217027 1  254             Rx   d 8 00 00 00 02 00 00 21 EA
 1.217345 1  255             Rx   d 8 00 00 00 01 FF FF FF F0
 1.217528 1  256             Rx   d 8 00 00 00 03 00 00 00 02
 1.217796 1  257             Rx   d 8 00 00 00 02 00 00 00 22
 1.218005 1  267             Rx   d 8 01 E5 00 27 1C 40 00 00
 1.218264 1  258             Rx   d 8 00 03 00 00 00 00 00 1D
 1.218495 1  231             Rx   d 8 00 01 00 00 00 00 00 70
 1.218747 1  311             Rx   d 8 FF FF FE BA FF FF FE 72
 1.218980 1  312             Rx   d 8 FF FF FE 94 FF FF FE 58
 1.219213 1  211             Rx   d 8 00 01 01 EF 00 00 00 00
 1.219393 1  291             Rx   d 3 00 00 00
 1.236127 1  221             Rx   d 8 00 00 00 00 00 00 00 00
 1.236325 1  281             Rx   d 8 00 00 00 00 00 00 00 00
 1.236571 1  271             Rx   d 8 00 00 00 00 00 00 00 00
 1.236824 1  241             Rx   d 8 AA 00 00 00 00 00 02 71
 1.237083 1  251             Rx   d 8 00 00 00 00 FF FF DF 27
 1.237313 1  252             Rx   d 8 00 00 00 00 FF FF DD 9F
 1.237574 1  253             Rx   d 8 00 00 00 01 00 00 23 98
 1.237799 1  254             Rx   d 8 00 00 00 01 00 00 21 EA
 1.238032 1  264             Rx   d 8 01 E5 00 27 1C 40 00 00
 1.238280 1  255             Rx   d 8 00 00 00 01 FF FF FF F0
 1.238541 1  256             Rx   d 8 00 00 00 03 00 00 00 02
 1.238800 1  257             Rx   d 8 00 00 00 02 00 00 00 22
 1.239032 1  258             Rx   d 8 00 04 00 00 00 00 00 3F
 1.239277 1  231             Rx   d 8 00 01 00 00 00 00 00 71
 1.239523 1  311             Rx   d 8 FF FF FE BA FF FF FE 72
 1.239747 1  312             Rx   d 8 FF FF FE 94 FF FF FE 58
 1.239980 1  211             Rx   d 8 00 01 01 EF 00 00 00 00
 1.240180 1  291             Rx   d 3 00 00 00
 1.257131 1  221             Rx   d 8 00 00 00 00 00 00 00 00
 1.257325 1  281             Rx   d 8 00 00 00 00 00 00 00 00
 1.257585 1  271             Rx   d 8 00 00 00 00 00 00 00 00
 1.257823 1  241             Rx   d 8 AA 00 00 00 00 00 02 72
 1.258055 1  251             Rx   d 8 00 00 00 00 FF FF DF 27
 1.258311 1  261             Rx   d 8 01 E7 00 27 19 40 00 00
 1.258548 1  252             Rx   d 8 00 00 00 00 FF FF DD 9E
 1.258799 1  253             Rx   d 8 00 00 00 01 00 00 23 98
 1.259079 1  254             Rx   d 8 00 00 00 01 00 00 21 EA
 1.259275 1  255             Rx   d 8 00 00 00 01 FF FF FF F0
 1.259526 1  256             Rx   d 8 00 00 00 03 00 00 00 02
 1.259780 1  266             Rx   d 8 01 E6 00 28 1C 40 00 00
 1.260031 1  257             Rx   d 8 00 00 00 03 00 00 00 22
 1.260264 1  258             Rx   d 8 00 04 00 00 00 00 00 48
 1.260540 1  231             Rx   d 8 00 01 00 00 00 00 00 72
 1.260773 1  311             Rx   d 8 FF FF FE BA FF FF FE 72
 1.261007 1  312             Rx   d 8 FF FF FE 94 FF FF FE 58
 1.261240 1  211             Rx   d 8 00 01 01 EF 00 00 00 00
 1.261415 1  291             Rx   d 3 00 00 00
 1.278116 1  221             Rx   d 8 00 00 00 00 00 00 00 00
 1.278323 1  281             Rx   d 8 00 00 00 00 00 00 00 00
 1.278577 1  271             Rx   d 8 00 00 00 00 00 00 00 00
 1.278823 1  241             Rx   d 8 AA 00 00 00 00 00 02 73
 1.279057 1  251             Rx   d 8 00 00 00 04 FF FF DF 26
 1.279317 1  252             Rx   d 8 00 00 00 01 FF FF DD 9F
 1.279548 1  253             Rx   d 8 00 00 00 01 00 00 23 98
 1.279772 1  263             Rx   d 8 01 ED 00 27 18 40 00 00
 1.280031 1  254             Rx   d 8 00 00 00 02 00 00 21 EA
 1.280268 1  255             Rx   d 8 00 00 00 02 FF FF FF F0
 1.280527 1  256             Rx   d 8 00 00 00 03 00 00 00 02
 1.280780 1  257             Rx   d 8 FF FE 00 02 FF FF FF FE
 1.281005 1  258             Rx   d 8 00 01 00 00 00 00 00 48
 1.281262 1  268             Rx   d 8 01 E9 00 28 1D 40 00 00
 1.281495 1  231             Rx   d 8 00 01 00 00 00 00 00 73
 1.281747 1  311             Rx   d 8 FF FF FE BA FF FF FE 72
 1.281980 1  312             Rx   d 8 FF FF FE 94 FF FF FE 58
 1.282241 1  211             Rx   d 8 00 01 01 EF 00 00 00 00
 1.282371 1  291             Rx   d 3 00 00 00
 1.282903 1  361             Rx   d 8 19 64 13 1A FF FA 01 23
 1.283159 1  362             Rx   d 8 00 00 00 00 00 00 02 06
 1.299095 1  221             Rx   d 8 00 00 00 00 00 00 00 00
 1.299324 1  281             Rx   d 8 00 00 00 00 00 00 00 00
 1.299578 1  271             Rx   d 8 00 00 00 00 00 00 00 00
 1.299830 1  241             Rx   d 8 AA 00 00 00 00 00 02 74
 1.300055 1  251             Rx   d 8 00 00 00 05 FF FF DF 26
 1.300339 1  252             Rx   d 8 00 00 00 00 FF FF DD 9E
 1.300549 1  253             Rx   d 8 00 00 00 01 00 00 23 98
 1.300799 1  254             Rx   d 8 00 00 00 01 00 00 21 EA
 1.301030 1  255             Rx   d 8 00 00 00 02 FF FF FF F0
 1.301298 1  265             Rx   d 8 01 E8 00 28 1C 40 00 00
 1.301521 1  256             Rx   d 8 00 00 00 03 00 00 00 02
 1.301773 1  257             Rx   d 8 FF FD 00 02 FF FF FF F5
 1.302005 1  258             Rx   d 8 00 00 00 01 00 00 00 48
 1.302275 1  231             Rx   d 8 00 01 00 00 00 00 00 74
 1.302501 1  311             Rx   d 8 FF FF FE BA FF FF FE 72
 1.302745 1  312             Rx   d 8 FF FF FE 94 FF FF FE 58
 1.302978 1  211             Rx   d 8 00 01 01 EF 00 00 00 00
 1.303132 1  291             Rx   d 3 00 00 00
 1.320097 1  221             Rx   d 8 00 00 00 00 00 00 00 00
 1.320435 1  281             Rx   d 8 00 00 00 00 00 00 00 00
 1.320588 1  271             Rx   d 8 00 00 00 00 00 00 00 00
 1.320831 1  241             Rx   d 8 AA 00 00 00 00 00 02 75
 1.321054 1  251             Rx   d 8 00 00 00 00 FF FF DF 27
 1.321315 1  252             Rx   d 8 00 00 00 00 FF FF DD 9E
 1.321548 1  262             Rx   d 8 01 EB 00 27 19 40 00 00
 1.321798 1  253             Rx   d 8 00 00 00 00 00 00 23 98
 1.322030 1  254             Rx   d 8 00 00 00 01 00 00 21 EA
 1.322291 1  255             Rx   d 8 00 00 00 01 FF FF FF F0
 1.322541 1  256             Rx   d 8 00 00 00 03 00 00 00 02
 1.322772 1  257             Rx   d 8 FF FF 00 02 FF FF FF F4
 1.323031 1  267             Rx   d 8 01 E5 00 27 1B 40 00 00
 1.323263 1  258             Rx   d 8 00 00 00 01 00 00 00 48
 1.323521 1  231             Rx   d 8 00 01 00 00 00 00 00 75
 1.323747 1  311             Rx   d 8 FF FF FE BA FF FF FE 72
 1.323980 1  312             Rx   d 8 FF FF FE 94 FF FF FE 58
 1.324215 1  211             Rx   d 8 00 01 01 EF 00 00 00 00
 1.324355 1  291             Rx   d 3 00 00 00
 1.341117 1  221             Rx   d 8 00 00 00 00 00 00 00 00
 1.341347 1  281             Rx   d 8 00 00 00 00 00 00 00 00
 1.341575 1  271             Rx   d 8 00 00 00 00 00 00 00 00
 1.341822 1  241             Rx   d 8 AA 00 00 00 00 00 02 76
 1.342054 1  251             Rx   d 8 00 00 00 00 FF FF DF 27
 1.342288 1  252             Rx   d 8 00 00 00 00 FF FF DD 9F
 1.342547 1  253             Rx   d 8 00 00 00 01 00 00 23 98
 1.342804 1  254             Rx   d 8 00 00 00 01 00 00 21 EA
 1.343029 1  264             Rx   d 8 01 E5 00 27 1C 40 00 00
 1.343274 1  255             Rx   d 8 00 00 00 02 FF FF FF F0
 1.343547 1  256             Rx   d 8 00 00 00 03 00 00 00 02
 1.343771 1  257             Rx   d 8 00 00 00 01 FF FF FF F4
 1.344029 1  258             Rx   d 8 00 00 00 01 00 00 00 48
 1.344261 1  231             Rx   d 8 00 01 00 00 00 00 00 76
 1.344494 1  311             Rx   d 8 FF FF FE BA FF FF FE 72
 1.344746 1  312             Rx   d 8 FF FF FE 94 FF FF FE 58
 1.344978 1  211             Rx   d 8 00 01 01 EF 00 00 00 00
 1.345158 1  291             Rx   d 3 00 00 00
 1.362094 1  221             Rx   d 8 00 00 00 00 00 00 00 00
 1.362324 1  281             Rx   d 8 00 00 00 00 00 00 00 00
 1.362699 1  271             Rx   d 8 00 00 00 00 00 00 00 00
 1.362848 1  241             Rx   d 8 AA 00 00 00 00 00 02 77
 1.363079 1  251             Rx   d 8 00 00 00 00 FF FF DF 27
 1.363321 1  261             Rx   d 8 01 E7 00 27 19 40 00 00
 1.363551 1  252             Rx   d 8 00 00 00 01 FF FF DD 9F
 1.363801 1  253             Rx   d 8 00 00 00 01 00 00 23 98
 1.364166 1  254             Rx   d 8 00 00 00 01 00 00 21 EA
 1.364285 1  255             Rx   d 8 00 00 00 02 FF FF FF F0
 1.364545 1  256             Rx   d 8 00 00 00 03 00 00 00 02
 1.364793 1  266             Rx   d 8 01 E6 00 28 1D 40 FF FF
 1.365031 1  257             Rx   d 8 00 00 00 01 FF FF FF F4
 1.365359 1  258             Rx   d 8 00 00 00 02 00 00 00 48
 1.365525 1  231             Rx   d 8 00 01 00 00 00 00 00 77
 1.365768 1  311             Rx   d 8 FF FF FE BA FF FF FE 72
 1.365980 1  312             Rx   d 8 FF FF FE 94 FF FF FE 58
 1.366258 1  211             Rx   d 8 00 01 01 EF 00 00 00 00
 1.366414 1  291             Rx   d 3 00 00 00
 1.383130 1  221             Rx   d 8 00 00 00 00 00 00 00 00
 1.383322 1  281             Rx   d 8 00 00 00 00 00 00 00 00
 1.383570 1  271             Rx   d 8 00 00 00 00 00 00 00 00
 1.383800 1  241             Rx   d 8 AA 00 00 00 00 00 02 78
 1.384057 1  251             Rx   d 8 00 00 00 00 FF FF DF 27
 1.384292 1  252             Rx   d 8 00 00 00 00 FF FF DD 9F
 1.384543 1  253             Rx   d 8 00 00 00 00 00 00 23 98
 1.384769 1  263             Rx   d 8 01 ED 00 27 18 40 00 00
 1.385027 1  254             Rx   d 8 00 00 00 02 00 00 21 EA
 1.385490 1  255             Rx   d 8 00 03 00 01 00 00 00 18
 1.385574 1  256             Rx   d 8 00 00 00 03 00 00 00 02
 1.385776 1  257             Rx   d 8 00 00 00 01 FF FF FF F4
 1.386048 1  258             Rx   d 8 00 00 00 02 00 00 00 48
 1.386261 1  268             Rx   d 8 01 E9 00 28 1D 40 00 00
 1.386494 1  231             Rx   d 8 00 01 00 00 00 00 00 78
 1.386745 1  311             Rx   d 8 FF FF FE BA FF FF FE 72
 1.386982 1  312             Rx   d 8 FF FF FE 94 FF FF FE 58
 1.387239 1  211             Rx   d 8 00 01 01 EF 00 00 00 00
 1.387368 1  291             Rx   d 3 00 00 00
 1.404125 1  221             Rx   d 8 00 00 00 00 00 00 00 00
 1.404322 1  281             Rx   d 8 00 00 00 00 00 00 00 00
 1.404567 1  271             Rx   d 8 00 00 00 00 00 00 00 00
 1.404818 1  241             Rx   d 8 AA 00 00 00 00 00 02 79
 1.405054 1  251             Rx   d 8 00 00 00 00 FF FF DF 26
 1.405311 1  252             Rx   d 8 00 00 00 00 FF FF DD 9F
 1.405544 1  253             Rx   d 8 00 00 00 01 00 00 23 98
 1.405792 1  254             Rx   d 8 00 00 00 02 00 00 21 EA
 1.406043 1  255             Rx   d 8 00 03 00 00 00 00 00 26
 1.406284 1  265             Rx   d 8 01 E8 00 28 1C 40 00 00
 1.406524 1  256             Rx   d 8 00 00 00 03 00 00 00 02
 1.406768 1  257             Rx   d 8 00 00 00 02 FF FF FF F4
 1.407039 1  258             Rx   d 8 00 00 00 00 00 00 00 24
 1.407259 1  231             Rx   d 8 00 01 00 00 00 00 00 79
 1.407525 1  311             Rx   d 8 FF FF FE BA FF FF FE 72
 1.407745 1  312             Rx   d 8 FF FF FE 94 FF FF FE 58
 1.407977 1  211             Rx   d 8 00 01 01 EF 00 00 00 00
 1.408131 1  291             Rx   d 3 00 00 00
 1.425147 1  221             Rx   d 8 00 00 00 00 00 00 00 00
 1.425367 1  281             Rx   d 8 00 00 00 00 00 00 00 00
 1.425583 1  271             Rx   d 8 00 00 00 00 00 00 00 00
 1.425821 1  241             Rx   d 8 AA 00 00 00 00 00 02 7A
 1.426054 1  251             Rx   d 8 00 00 00 03 FF FF DF 27
 1.426333 1  252             Rx   d 8 00 00 00 00 FF FF DD 9E
 1.426546 1  262             Rx   d 8 01 EB 00 27 19 40 00 00
 1.426796 1  253             Rx   d 8 00 00 00 01 00 00 23 98
 1.427028 1  254             Rx   d 8 00 00 00 01 00 00 21 EA
 1.427291 1  255             Rx   d 8 00 01 00 01 00 00 00 27
 1.427562 1  256             Rx   d 8 00 00 00 03 00 00 00 02
 1.427796 1  257             Rx   d 8 00 00 00 02 FF FF FF F4
 1.428028 1  267             Rx   d 8 01 E5 00 27 1B 40 00 00
 1.428261 1  258             Rx   d 8 FF FD 00 02 00 00 00 1A
 1.428494 1  231             Rx   d 8 00 01 00 00 00 00 00 7A
 1.428744 1  311             Rx   d 8 FF FF FE BA FF FF FE 72
 1.428976 1  312             Rx   d 8 FF FF FE 94 FF FF FE 58
 1.429235 1  211             Rx   d 8 00 01 01 EF 00 00 00 00
 1.429390 1  291             Rx   d 3 00 00 00
 1.446151 1  221             Rx   d 8 00 00 00 00 00 00 00 00
 1.446321 1  281             Rx   d 8 00 00 00 00 00 00 00 00
 1.446579 1  271             Rx   d 8 00 00 00 00 00 00 00 00
 1.446845 1  241             Rx   d 8 AA 00 00 00 00 00 02 7B
 1.447074 1  251             Rx   d 8 00 00 00 02 FF FF DF 27
 1.447318 1  252             Rx   d 8 00 00 00 00 FF FF DD 9F
 1.447548 1  253             Rx   d 8 00 00 00 01 00 00 23 98
 1.447831 1  254             Rx   d 8 00 00 00 01 00 00 21 EA
 1.448067 1  264             Rx   d 8 01 E5 00 27 1C 40 00 00
 1.448293 1  255             Rx   d 8 00 00 00 00 00 00 00 27
 1.448544 1  256             Rx   d 8 00 00 00 03 00 00 00 02
 1.448769 1  257             Rx   d 8 00 00 00 02 FF FF FF F4
 1.449028 1  258             Rx   d 8 FF FD 00 02 00 00 00 1A
 1.449260 1  231             Rx   d 8 00 01 00 00 00 00 00 7B
 1.449493 1  311             Rx   d 8 FF FF FE BA FF FF FE 72
 1.449743 1  312             Rx   d 8 FF FF FE 94 FF FF FE 58
 1.450001 1  211             Rx   d 8 00 01 01 EF 00 00 00 00
 1.450129 1  291             Rx   d 3 00 00 00
 1.467114 1  221             Rx   d 8 00 00 00 00 00 00 00 00
 1.467341 1  281             Rx   d 8 00 00 00 00 00 00 00 00
 1.467587 1  271             Rx   d 8 00 00 00 00 00 00 00 00
 1.467822 1  241             Rx   d 8 AA 00 00 00 00 00 02 7C
 1.468078 1  251             Rx   d 8 00 00 00 03 FF FF DF 27
 1.468307 1  261             Rx   d 8 01 E7 00 27 1B 40 00 00
 1.468543 1  252             Rx   d 8 00 00 00 00 FF FF DD 9E
 1.468794 1  253             Rx   d 8 00 00 00 01 00 00 23 98
 1.469050 1  254             Rx   d 8 00 00 00 02 00 00 21 EA
 1.469272 1  255             Rx   d 8 00 00 00 00 00 00 00 27
 1.469543 1  256             Rx   d 8 00 00 00 03 00 00 00 02
 1.469767 1  266             Rx   d 8 01 E6 00 28 1C 40 00 00
 1.469998 1  257             Rx   d 8 00 00 00 02 FF FF FF F4
 1.470260 1  258             Rx   d 8 FF FD 00 01 FF FF FF FD
 1.470518 1  231             Rx   d 8 00 01 00 00 00 00 00 7C
 1.470768 1  311             Rx   d 8 FF FF FE BA FF FF FE 72
 1.470981 1  312             Rx   d 8 FF FF FE 94 FF FF FE 58
 1.471215 1  211             Rx   d 8 00 01 01 EF 00 00 00 00
 1.471370 1  291             Rx   d 3 00 00 00
 1.483417 1  361             Rx   d 8 19 64 13 1A FF FA 01 23
 1.483953 1  362             Rx   d 8 00 00 00 00 00 00 02 06
 1.488111 1  221             Rx   d 8 00 00 00 00 00 00 00 00
 1.488342 1  281             Rx   d 8 00 00 00 00 00 00 00 00
 1.488573 1  271             Rx   d 8 00 00 00 00 00 00 00 00
 1.488819 1  241             Rx   d 8 AA 00 00 00 00 00 02 7D
 1.489053 1  251             Rx   d 8 00 00 00 03 FF FF DF 27
 1.489308 1  252             Rx   d 8 00 00 00 00 FF FF DD 9E
 1.489544 1  253             Rx   d 8 00 00 00 01 00 00 23 98
 1.489794 1  263             Rx   d 8 01 ED 00 27 18 40 00 00
 1.490027 1  254             Rx   d 8 00 00 00 02 00 00 21 EA
 1.490283 1  255             Rx   d 8 00 00 00 00 00 00 00 27
 1.490518 1  256             Rx   d 8 00 00 00 03 00 00 00 02
 1.490769 1  257             Rx   d 8 00 00 00 02 FF FF FF F4
 1.491010 1  258             Rx   d 8 FF FB 00 01 FF FF FF D8
 1.491260 1  268             Rx   d 8 01 E9 00 28 1D 40 00 00
 1.491493 1  231             Rx   d 8 00 01 00 00 00 00 00 7D
 1.491743 1  311             Rx   d 8 FF FF FE BA FF FF FE 72
 1.491975 1  312             Rx   d 8 FF FF FE 94 FF FF FE 58
 1.492234 1  211             Rx   d 8 00 01 01 EF 00 00 00 00
 1.492388 1  291             Rx   d 3 00 00 00
 1.509152 1  221             Rx   d 8 00 00 00 00 00 00 00 00
 1.509315 1  281             Rx   d 8 00 00 00 00 00 00 00 00
 1.509572 1  271             Rx   d 8 00 00 00 00 00 00 00 00
 1.509820 1  241             Rx   d 8 AA 00 00 00 00 00 02 7E
 1.510056 1  251             Rx   d 8 00 00 00 02 FF FF DF 27
 1.510316 1  252             Rx   d 8 00 00 00 03 FF FF DD 9F
 1.510548 1  253             Rx   d 8 00 00 00 01 00 00 23 98
 1.510794 1  254             Rx   d 8 00 00 00 02 00 00 21 EA
 1.511056 1  255             Rx   d 8 00 00 00 00 00 00 00 27
 1.511290 1  265             Rx   d 8 01 E8 00 28 1C 40 00 00
 1.511521 1  256             Rx   d 8 00 00 00 04 00 00 00 02
 1.511763 1  257             Rx   d 8 00 00 00 01 FF FF FF F4
 1.512027 1  258             Rx   d 8 FF FC 00 01 FF FF FF CC
 1.512271 1  231             Rx   d 8 00 01 00 00 00 00 00 7E
 1.512519 1  311             Rx   d 8 FF FF FE BA FF FF FE 72
 1.512742 1  312             Rx   d 8 FF FF FE 94 FF FF FE 58
 1.512974 1  211             Rx   d 8 00 01 01 EF 00 00 00 00
 1.513154 1  291             Rx   d 3 00 00 00
 1.530084 1  221             Rx   d 8 00 00 00 00 00 00 00 00
 1.530322 1  281             Rx   d 8 00 00 00 00 00 00 00 00
 1.530565 1  271             Rx   d 8 00 00 00 00 00 00 00 00
 1.530819 1  241             Rx   d 8 AA 00 00 00 00 00 02 7F
 1.531075 1  251             Rx   d 8 00 00 00 03 FF FF DF 26
 1.531296 1  252             Rx   d 8 00 00 00 03 FF FF DD 9E
 1.531548 1  262             Rx   d 8 01 EB 00 27 19 40 00 00
 1.531793 1  253             Rx   d 8 00 00 00 01 00 00 23 98
 1.532026 1  254             Rx   d 8 00 00 00 01 00 00 21 EA
 1.532275 1  255             Rx   d 8 00 00 00 00 00 00 00 27
 1.532517 1  256             Rx   d 8 00 00 00 04 00 00 00 02
 1.532768 1  257             Rx   d 8 00 00 00 01 FF FF FF F4
 1.533000 1  267             Rx   d 8 01 E5 00 27 1B 40 00 00
 1.533260 1  258             Rx   d 8 FF FF 00 00 FF FF FF CC
 1.533492 1  231             Rx   d 8 00 01 00 00 00 00 00 7F
 1.533741 1  311             Rx   d 8 FF FF FE BA FF FF FE 72
 1.533974 1  312             Rx   d 8 FF FF FE 94 FF FF FE 58
 1.534234 1  211             Rx   d 8 00 01 01 EF 00 00 00 00
 1.534388 1  291             Rx   d 3 00 00 00
 1.551137 1  221             Rx   d 8 00 00 00 00 00 00 00 00
 1.551365 1  281             Rx   d 8 00 00 00 00 00 00 00 00
 1.551564 1  271             Rx   d 8 00 00 00 00 00 00 00 00
 1.551818 1  241             Rx   d 8 AA 00 00 00 00 00 02 80
 1.552054 1  251             Rx   d 8 00 00 00 01 FF FF DF 27
 1.552319 1  252             Rx   d 8 00 00 00 03 FF FF DD 9F
 1.552543 1  253             Rx   d 8 00 00 00 01 00 00 23 98
 1.552793 1  254             Rx   d 8 00 00 00 02 00 00 21 EA
 1.553055 1  264             Rx   d 8 01 E5 00 27 1C 40 00 00
 1.553292 1  255             Rx   d 8 00 00 00 00 00 00 00 27
 1.553521 1  256             Rx   d 8 00 00 00 03 00 00 00 02
 1.553768 1  257             Rx   d 8 00 00 00 01 FF FF FF F4
 1.554026 1  258             Rx   d 8 00 00 00 00 FF FF FF CC
 1.554274 1  231             Rx   d 8 00 01 00 00 00 00 00 80
 1.554518 1  311             Rx   d 8 FF FF FE BA FF FF FE 72
 1.554742 1  312             Rx   d 8 FF FF FE 94 FF FF FE 58
 1.555000 1  211             Rx   d 8 00 01 01 EF 00 00 00 00
 1.555154 1  291             Rx   d 3 00 00 00
 1.572131 1  221             Rx   d 8 00 00 00 00 00 00 00 00
 1.572335 1  281             Rx   d 8 00 00 00 00 00 00 00 00
 1.572563 1  271             Rx   d 8 00 00 00 00 00 00 00 00
 1.572819 1  241             Rx   d 8 AA 00 00 00 00 00 02 81
 1.573053 1  251             Rx   d 8 00 00 00 03 FF FF DF 27
 1.573287 1  261             Rx   d 8 01 E7 00 27 1C 40 00 00
 1.573545 1  252             Rx   d 8 00 00 00 03 FF FF DD 9E
 1.573792 1  253             Rx   d 8 00 00 00 00 00 00 23 98
 1.574025 1  254             Rx   d 8 00 00 00 01 00 00 21 EA
 1.574271 1  255             Rx   d 8 00 00 00 00 00 00 00 27
 1.574515 1  256             Rx   d 8 00 00 00 03 00 00 00 02
 1.574748 1  266             Rx   d 8 01 E6 00 28 1C 40 00 00
 1.575025 1  257             Rx   d 8 00 00 00 01 FF FF FF F4
 1.575255 1  258             Rx   d 8 00 00 00 00 FF FF FF CC
 1.575516 1  231             Rx   d 8 00 01 00 00 00 00 00 81
 1.575767 1  311             Rx   d 8 FF FF FE BA FF FF FE 72
 1.575981 1  312             Rx   d 8 FF FF FE 94 FF FF FE 58
 1.576213 1  211             Rx   d 8 00 01 01 EF 00 00 00 00
 1.576391 1  291             Rx   d 3 00 00 00
 1.593155 1  221             Rx   d 8 00 00 00 00 00 00 00 00
 1.593313 1  281             Rx   d 8 00 00 00 00 00 00 00 00
 1.593563 1  271             Rx   d 8 00 00 00 00 00 00 00 00
 1.593818 1  241             Rx   d 8 AA 00 00 00 00 00 02 82
 1.594054 1  251             Rx   d 8 00 00 00 04 FF FF DF 26
 1.594321 1  252             Rx   d 8 00 00 00 02 FF FF DD 9F
 1.594541 1  253             Rx   d 8 00 00 00 00 00 00 23 98
 1.594792 1  263             Rx   d 8 01 ED 00 27 18 40 00 00
 1.595050 1  254             Rx   d 8 00 00 00 02 00 00 21 EA
 1.595283 1  255             Rx   d 8 00 00 00 00 00 00 00 27
 1.595513 1  256             Rx   d 8 00 00 00 03 00 00 00 02
 1.595766 1  257             Rx   d 8 00 00 00 01 FF FF FF F4
 1.596024 1  258             Rx   d 8 00 00 00 00 FF FF FF CC
 1.596257 1  268             Rx   d 8 01 E9 00 28 1C 40 00 00
 1.596583 1  231             Rx   d 8 00 01 00 00 00 00 00 82
 1.596766 1  311             Rx   d 8 FF FF FE BA FF FF FE 72
 1.596999 1  312             Rx   d 8 FF FF FE 94 FF FF FE 58
 1.597231 1  211             Rx   d 8 00 01 01 EF 00 00 00 00
 1.597383 1  291             Rx   d 3 00 00 00
 1.614140 1  221             Rx   d 8 00 00 00 00 00 00 00 00
 1.614308 1  281             Rx   d 8 00 00 00 00 00 00 00 00
 1.614551 1  271             Rx   d 8 00 00 00 00 00 00 00 00
 1.614796 1  241             Rx   d 8 AA 00 00 00 00 00 02 83
 1.615074 1  251             Rx   d 8 00 00 00 00 FF FF DF 26
 1.615329 1  252             Rx   d 8 00 00 00 02 FF FF DD 9F
 1.615561 1  253             Rx   d 8 00 00 00 01 00 00 23 98
 1.615790 1  254             Rx   d 8 00 00 00 01 00 00 21 EA
 1.616025 1  255             Rx   d 8 00 00 00 00 00 00 00 27
 1.616281 1  265             Rx   d 8 01 E8 00 28 1C 40 00 00
 1.616515 1  256             Rx   d 8 00 00 00 03 00 00 00 02
 1.616790 1  257             Rx   d 8 00 00 00 02 FF FF FF F4
 1.617028 1  258             Rx   d 8 00 00 00 00 FF FF FF CC
 1.617261 1  231             Rx   d 8 00 01 00 00 00 00 00 83
 1.617520 1  311             Rx   d 8 FF FF FE BA FF FF FE 72
 1.617739 1  312             Rx   d 8 FF FF FE 94 FF FF FE 58
 1.617972 1  211             Rx   d 8 00 01 01 EF 00 00 00 00
 1.618153 1  291             Rx   d 3 00 00 00
 1.635139 1  221             Rx   d 8 00 00 00 00 00 00 00 00
 1.635309 1  281             Rx   d 8 00 00 00 00 00 00 00 00
 1.635570 1  271             Rx   d 8 00 00 00 00 00 00 00 00
 1.635822 1  241             Rx   d 8 AA 00 00 00 00 00 02 84
 1.636050 1  251             Rx   d 8 00 00 00 02 FF FF DF 26
 1.636303 1  252             Rx   d 8 00 00 00 03 FF FF DD 9F
 1.636542 1  262             Rx   d 8 01 EB 00 27 19 40 00 00
 1.636791 1  253             Rx   d 8 00 00 00 01 00 00 23 98
 1.637025 1  254             Rx   d 8 00 00 00 01 00 00 21 EA
 1.637275 1  255             Rx   d 8 00 00 00 00 00 00 00 27
 1.637517 1  256             Rx   d 8 00 00 00 03 00 00 00 02
 1.637768 1  257             Rx   d 8 00 00 00 01 FF FF FF F4
 1.638000 1  267             Rx   d 8 01 E5 00 27 1B 40 00 00
 1.638258 1  258             Rx   d 8 00 00 00 00 FF FF FF CC
 1.638518 1  231             Rx   d 8 00 01 00 00 00 00 00 84
 1.638780 1  311             Rx   d 8 FF FF FE BA FF FF FE 72
 1.638999 1  312             Rx   d 8 FF FF FE 94 FF FF FE 58
 1.639232 1  211             Rx   d 8 00 01 01 EF 00 00 00 00
 1.639387 1  291             Rx   d 3 00 00 00
 1.656147 1  221             Rx   d 8 00 00 00 00 00 00 00 00
 1.656341 1  281             Rx   d 8 00 00 00 00 00 00 00 00
 1.656540 1  271             Rx   d 8 00 00 00 00 00 00 00 00
 1.656844 1  241             Rx   d 8 AA 00 00 00 00 00 02 85
 1.657079 1  251             Rx   d 8 00 00 00 00 FF FF DF 26
 1.657313 1  252             Rx   d 8 00 00 00 03 FF FF DD 9E
 1.657572 1  253             Rx   d 8 00 00 00 01 00 00 23 98
 1.657792 1  254             Rx   d 8 00 00 00 01 00 00 21 EA
 1.658050 1  264             Rx   d 8 01 E5 00 27 1C 40 00 00
 1.658283 1  255             Rx   d 8 00 00 00 00 00 00 00 27
 1.658541 1  256             Rx   d 8 00 00 00 03 00 00 00 02
 1.658792 1  257             Rx   d 8 00 00 00 01 FF FF FF F4
 1.659053 1  258             Rx   d 8 00 00 00 00 FF FF FF CC
 1.659287 1  231             Rx   d 8 00 01 00 00 00 00 00 85
 1.659520 1  311             Rx   d 8 FF FF FE BA FF FF FE 72
 1.659766 1  312             Rx   d 8 FF FF FE 94 FF FF FE 58
 1.659998 1  211             Rx   d 8 00 01 01 EF 00 00 00 00
 1.660176 1  291             Rx   d 3 00 00 00
 1.677165 1  221             Rx   d 8 00 00 00 00 00 00 00 00
 1.677339 1  281             Rx   d 8 00 00 00 00 00 00 00 00
 1.677589 1  271             Rx   d 8 00 00 00 00 00 00 00 00
 1.677843 1  241             Rx   d 8 AA 00 00 00 00 00 02 86
 1.678075 1  251             Rx   d 8 00 00 00 00 FF FF DF 26
 1.678303 1  261             Rx   d 8 01 E7 00 27 1C 40 00 00
 1.678566 1  252             Rx   d 8 00 00 00 04 FF FF DD 9E
 1.678792 1  253             Rx   d 8 00 00 00 00 00 00 23 98
 1.679049 1  254             Rx   d 8 00 00 00 02 00 00 21 EA
 1.679283 1  255             Rx   d 8 00 00 00 01 00 00 00 27
 1.679540 1  256             Rx   d 8 00 00 00 03 00 00 00 02
 1.679765 1  266             Rx   d 8 01 E6 00 28 1C 40 00 00
 1.680023 1  257             Rx   d 8 00 00 00 01 FF FF FF F4
 1.680257 1  258             Rx   d 8 00 00 00 01 FF FF FF CC
 1.680515 1  231             Rx   d 8 00 01 00 00 00 00 00 86
 1.680740 1  311             Rx   d 8 FF FF FE BA FF FF FE 72
 1.681000 1  312             Rx   d 8 FF FF FE 94 FF FF FE 58
 1.681235 1  211             Rx   d 8 00 01 01 EF 00 00 00 00
 1.681389 1  291             Rx   d 3 00 00 00
 1.683924 1  361             Rx   d 8 19 64 13 1A FF FA 01 23
 1.684181 1  362             Rx   d 8 00 00 00 00 00 00 02 06
 1.698111 1  221             Rx   d 8 00 00 00 00 00 00 00 00
 1.698337 1  281             Rx   d 8 00 00 00 00 00 00 00 00
 1.698562 1  271             Rx   d 8 00 00 00 00 00 00 00 00
 1.698817 1  241             Rx   d 8 AA 00 00 00 00 00 02 87
 1.699050 1  251             Rx   d 8 00 00 00 01 FF FF DF 27
 1.699309 1  252             Rx   d 8 00 00 00 04 FF FF DD 9F
 1.699541 1  253             Rx   d 8 00 00 00 01 00 00 23 98
 1.699764 1  263             Rx   d 8 01 ED 00 27 18 40 00 00
 1.700022 1  254             Rx   d 8 00 00 00 01 00 00 21 EA
 1.700290 1  255             Rx   d 8 00 00 00 00 00 00 00 27
 1.700514 1  256             Rx   d 8 00 00 00 03 00 00 00 02
 1.700784 1  257             Rx   d 8 00 00 00 01 FF FF FF F4
 1.700999 1  258             Rx   d 8 00 00 00 01 FF FF FF CC
 1.701257 1  268             Rx   d 8 01 E9 00 28 1D 40 00 00
 1.701489 1  231             Rx   d 8 00 01 00 00 00 00 00 87
 1.701740 1  311             Rx   d 8 FF FF FE BA FF FF FE 72
 1.701973 1  312             Rx   d 8 FF FF FE 94 FF FF FE 58
 1.702235 1  211             Rx   d 8 00 01 01 EF 00 00 00 00
 1.702363 1  291             Rx   d 3 00 00 00
 1.719113 1  221             Rx   d 8 00 00 00 00 00 00 00 00
 1.719338 1  281             Rx   d 8 00 00 00 00 00 00 00 00
 1.719561 1  271             Rx   d 8 00 00 00 00 00 00 00 00
 1.719840 1  241             Rx   d 8 AA 00 00 00 00 00 02 88
 1.720076 1  251             Rx   d 8 00 00 00 01 FF FF DF 27
 1.720316 1  252             Rx   d 8 00 00 00 03 FF FF DD 9E
 1.720566 1  253             Rx   d 8 00 00 00 01 00 00 23 98
 1.720790 1  254             Rx   d 8 00 00 00 01 00 00 21 EA
 1.721022 1  255             Rx   d 8 00 00 00 01 00 00 00 27
 1.721290 1  265             Rx   d 8 01 E8 00 28 1C 40 00 00
 1.721514 1  256             Rx   d 8 00 00 00 03 00 00 00 02
 1.721788 1  257             Rx   d 8 00 00 00 01 FF FF FF F4
 1.722023 1  258             Rx   d 8 00 00 00 01 FF FF FF CC
 1.722281 1  231             Rx   d 8 00 01 00 00 00 00 00 88
 1.722514 1  311             Rx   d 8 FF FF FE BA FF FF FE 72
 1.722736 1  312             Rx   d 8 FF FF FE 94 FF FF FE 58
 1.722970 1  211             Rx   d 8 00 01 01 EF 00 00 00 00
 1.723150 1  291             Rx   d 3 00 00 00
 1.740125 1  221             Rx   d 8 00 00 00 00 00 00 00 00
 1.740321 1  281             Rx   d 8 00 00 00 00 00 00 00 00
 1.740563 1  271             Rx   d 8 00 00 00 00 00 00 00 00
 1.740825 1  241             Rx   d 8 AA 00 00 00 00 00 02 89
 1.741048 1  251             Rx   d 8 00 00 00 01 FF FF DF 27
 1.741343 1  252             Rx   d 8 00 00 00 04 FF FF DD 9F
 1.741540 1  262             Rx   d 8 01 EB 00 27 19 40 00 00
 1.741791 1  253             Rx   d 8 00 00 00 01 00 00 23 98
 1.742022 1  254             Rx   d 8 00 00 00 02 00 00 21 EA
 1.742289 1  255             Rx   d 8 FF FE 00 00 00 00 00 03
 1.742522 1  256             Rx   d 8 00 00 00 03 00 00 00 02
 1.742764 1  257             Rx   d 8 00 00 00 01 FF FF FF F4
 1.742996 1  267             Rx   d 8 01 E5 00 27 1B 40 00 00
 1.743253 1  258             Rx   d 8 00 00 00 01 FF FF FF CC
 1.743508 1  231             Rx   d 8 00 01 00 00 00 00 00 89
 1.743738 1  311             Rx   d 8 FF FF FE BA FF FF FE 72
 1.743971 1  312             Rx   d 8 FF FF FE 94 FF FF FE 58
 1.744275 1  211             Rx   d 8 00 01 01 EF 00 00 00 00
 1.744384 1  291             Rx   d 3 00 00 00
 1.761109 1  221             Rx   d 8 00 00 00 00 00 00 00 00
 1.761336 1  281             Rx   d 8 00 00 00 00 00 00 00 00
 1.761562 1  271             Rx   d 8 00 00 00 00 00 00 00 00
 1.761815 1  241             Rx   d 8 AA 00 00 00 00 00 02 8A
 1.762052 1  251             Rx   d 8 00 00 00 00 FF FF DF 27
 1.762312 1  252             Rx   d 8 00 00 00 03 FF FF DD 9E
 1.762544 1  253             Rx   d 8 00 00 00 01 00 00 23 98
 1.762790 1  254             Rx   d 8 00 00 00 02 00 00 21 EA
 1.763060 1  264             Rx   d 8 01 E5 00 27 19 40 00 00
 1.763286 1  255             Rx   d 8 FF FD 00 00 FF FF FF F4
 1.763518 1  256             Rx   d 8 00 00 00 03 00 00 00 02
 1.763764 1  257             Rx   d 8 00 00 00 01 FF FF FF F4
 1.764023 1  258             Rx   d 8 00 00 00 00 FF FF FF F2
 1.764256 1  231             Rx   d 8 00 01 00 00 00 00 00 8A
 1.764486 1  311             Rx   d 8 FF FF FE BA FF FF FE 72
 1.764739 1  312             Rx   d 8 FF FF FE 94 FF FF FE 58
 1.764970 1  211             Rx   d 8 00 01 01 EF 00 00 00 00
 1.765125 1  291             Rx   d 3 00 00 00
 1.782079 1  221             Rx   d 8 00 00 00 00 00 00 00 00
 1.782310 1  281             Rx   d 8 00 00 00 00 00 00 00 00
 1.782568 1  271             Rx   d 8 00 00 00 00 00 00 00 00
 1.782815 1  241             Rx   d 8 AA 00 00 00 00 00 02 8B
 1.783074 1  251             Rx   d 8 00 00 00 00 FF FF DF 27
 1.783335 1  261             Rx   d 8 01 E7 00 27 1C 40 00 00
 1.783557 1  252             Rx   d 8 00 00 00 03 FF FF DD 9E
 1.783788 1  253             Rx   d 8 00 00 00 01 00 00 23 98
 1.784022 1  254             Rx   d 8 00 00 00 01 00 00 21 EA
 1.784256 1  255             Rx   d 8 FF FE 00 00 FF FF FF F0
 1.784514 1  256             Rx   d 8 00 00 00 04 00 00 00 02
 1.784763 1  266             Rx   d 8 01 E6 00 28 1C 40 00 00
 1.785022 1  257             Rx   d 8 00 00 00 01 FF FF FF F4
 1.785254 1  258             Rx   d 8 00 04 00 01 FF FF FF FF
 1.785514 1  231             Rx   d 8 00 01 00 00 00 00 00 8B
 1.785738 1  311             Rx   d 8 FF FF FE BA FF FF FE 72
 1.785971 1  312             Rx   d 8 FF FF FE 94 FF FF FE 58
 1.786207 1  211             Rx   d 8 00 01 01 EF 00 00 00 00
 1.786407 1  291             Rx   d 3 00 00 00
 1.803109 1  221             Rx   d 8 00 00 00 00 00 00 00 00
 1.803336 1  281             Rx   d 8 00 00 00 00 00 00 00 00
 1.803568 1  271             Rx   d 8 00 00 00 00 00 00 00 00
 1.803816 1  241             Rx   d 8 AA 00 00 00 00 00 02 8C
 1.804052 1  251             Rx   d 8 00 00 00 00 FF FF DF 26
 1.804325 1  252             Rx   d 8 00 00 00 03 FF FF DD 9E
 1.804562 1  253             Rx   d 8 00 00 00 00 00 00 23 98
 1.804789 1  263             Rx   d 8 01 ED 00 27 19 40 00 00
 1.805046 1  254             Rx   d 8 00 00 00 01 00 00 21 EA
 1.805285 1  255             Rx   d 8 00 00 00 01 FF FF FF F0
 1.805539 1  256             Rx   d 8 00 00 00 04 00 00 00 02
 1.805789 1  257             Rx   d 8 00 00 00 01 FF FF FF F4
 1.806021 1  258             Rx   d 8 00 03 00 00 00 00 00 13
 1.806263 1  268             Rx   d 8 01 E9 00 28 1C 40 00 00
 1.806513 1  231             Rx   d 8 00 01 00 00 00 00 00 8C
 1.806763 1  311             Rx   d 8 FF FF FE BA FF FF FE 72
 1.806996 1  312             Rx   d 8 FF FF FE 94 FF FF FE 58
 1.807229 1  211             Rx   d 8 00 01 01 EF 00 00 00 00
 1.807402 1  291             Rx   d 3 00 00 00
 1.824105 1  221             Rx   d 8 00 00 00 00 00 00 00 00
 1.824336 1  281             Rx   d 8 00 00 00 00 00 00 00 00
 1.824568 1  271             Rx   d 8 00 00 00 00 00 00 00 00
 1.824814 1  241             Rx   d 8 AA 00 00 00 00 00 02 8D
 1.825107 1  251             Rx   d 8 00 00 00 00 FF FF DF 27
 1.825329 1  252             Rx   d 8 00 00 00 04 FF FF DD 9E
 1.825562 1  253             Rx   d 8 00 00 00 01 00 00 23 98
 1.825788 1  254             Rx   d 8 00 00 00 01 00 00 21 EA
 1.826051 1  255             Rx   d 8 00 00 00 00 FF FF FF F0
 1.826295 1  265             Rx   d 8 01 E8 00 28 1C 40 00 00
 1.826543 1  256             Rx   d 8 00 00 00 03 00 00 00 02
 1.826789 1  257             Rx   d 8 00 00 00 01 FF FF FF F4
 1.827022 1  258             Rx   d 8 00 03 00 00 00 00 00 32
 1.827265 1  231             Rx   d 8 00 01 00 00 00 00 00 8D
 1.827513 1  311             Rx   d 8 FF FF FE BA FF FF FE 72
 1.827744 1  312             Rx   d 8 FF FF FE 94 FF FF FE 58
 1.827995 1  211             Rx   d 8 00 01 01 EF 00 00 00 00
 1.828149 1  291             Rx   d 3 00 00 00
 1.845118 1  221             Rx   d 8 00 00 00 00 00 00 00 00
 1.845353 1  281             Rx   d 8 00 00 00 00 00 00 00 00
 1.845547 1  271             Rx   d 8 00 00 00 00 00 00 00 00
 1.845798 1  241             Rx   d 8 AA 00 00 00 00 00 02 8E
 1.846047 1  251             Rx   d 8 00 00 00 00 FF FF DF 26
 1.846303 1  252             Rx   d 8 00 00 00 06 FF FF DD 9F
 1.846538 1  262             Rx   d 8 01 EB 00 27 19 40 00 00
 1.846788 1  253             Rx   d 8 00 00 00 01 00 00 23 98
 1.847021 1  254             Rx   d 8 00 00 00 01 00 00 21 EA
 1.847266 1  255             Rx   d 8 00 00 00 00 FF FF FF F0
 1.847544 1  256             Rx   d 8 00 00 00 03 00 00 00 02
 1.847762 1  257             Rx   d 8 00 00 00 00 FF FF FF F4
 1.848021 1  267             Rx   d 8 01 E5 00 27 1B 40 00 00
 1.848253 1  258             Rx   d 8 00 04 00 00 00 00 00 49
 1.848514 1  231             Rx   d 8 00 01 00 00 00 00 00 8E
 1.848736 1  311             Rx   d 8 FF FF FE BA FF FF FE 72
 1.848969 1  312             Rx   d 8 FF FF FE 94 FF FF FE 58
 1.849228 1  211             Rx   d 8 00 01 01 EF 00 00 00 00
 1.849383 1  291             Rx   d 3 00 00 00
 1.866137 1  221             Rx   d 8 00 00 00 00 00 00 00 00
 1.866360 1  281             Rx   d 8 00 00 00 00 00 00 00 00
 1.866565 1  271             Rx   d 8 00 00 00 00 00 00 00 00
 1.866830 1  241             Rx   d 8 AA 00 00 00 00 00 02 8F
 1.867079 1  251             Rx   d 8 00 00 00 01 FF FF DF 27
 1.867341 1  252             Rx   d 8 00 00 00 00 FF FF DD 9E
 1.867567 1  253             Rx   d 8 00 00 00 01 00 00 23 98
 1.867788 1  254             Rx   d 8 00 00 00 02 00 00 21 EA
 1.868049 1  264             Rx   d 8 01 E5 00 27 19 40 00 00
 1.868289 1  255             Rx   d 8 00 00 00 00 FF FF FF F0
 1.868541 1  256             Rx   d 8 00 00 00 03 00 00 00 02
 1.868788 1  257             Rx   d 8 00 00 00 01 FF FF FF F4
 1.869050 1  258             Rx   d 8 00 02 00 00 00 00 00 49
 1.869275 1  231             Rx   d 8 00 01 00 00 00 00 00 8F
 1.869515 1  311             Rx   d 8 FF FF FE BA FF FF FE 72
 1.869761 1  312             Rx   d 8 FF FF FE 94 FF FF FE 58
 1.869975 1  211             Rx   d 8 00 01 01 EF 00 00 00 00
 1.870172 1  291             Rx   d 3 00 00 00
 1.884498 1  361             Rx   d 8 19 64 13 1A FF FA 01 23
 1.884676 1  362             Rx   d 8 00 00 00 00 00 00 02 06
 1.887055 1  221             Rx   d 8 00 00 00 00 00 00 00 00
 1.887336 1  281             Rx   d 8 00 00 00 00 00 00 00 00
 1.887572 1  271             Rx   d 8 00 00 00 00 00 00 00 00
 1.887818 1  241             Rx   d 8 AA 00 00 00 00 00 02 90
 1.888069 1  251             Rx   d 8 00 00 00 01 FF FF DF 27
 1.888320 1  261             Rx   d 8 01 E7 00 27 1C 40 00 00
 1.888560 1  252             Rx   d 8 00 00 00 04 FF FF DD 9F
 1.888819 1  253             Rx   d 8 00 00 00 01 00 00 23 98
 1.889023 1  254             Rx   d 8 00 00 00 02 00 00 21 EA
 1.889308 1  255             Rx   d 8 00 00 00 00 FF FF FF F0
 1.889541 1  256             Rx   d 8 00 00 00 03 00 00 00 02
 1.889791 1  266             Rx   d 8 01 E6 00 28 1C 40 00 00
 1.890023 1  257             Rx   d 8 00 00 00 01 FF FF FF F4
 1.890280 1  258             Rx   d 8 00 02 00 00 00 00 00 49
 1.890491 1  231             Rx   d 8 00 01 00 00 00 00 00 90
 1.890761 1  311             Rx   d 8 FF FF FE BA FF FF FE 72
 1.890975 1  312             Rx   d 8 FF FF FE 94 FF FF FE 58
 1.891250 1  211             Rx   d 8 00 01 01 EF 00 00 00 00
 1.891385 1  291             Rx   d 3 00 00 00
 1.908113 1  221             Rx   d 8 00 00 00 00 00 00 00 00
 1.908355 1  281             Rx   d 8 00 00 00 00 00 00 00 00
 1.908578 1  271             Rx   d 8 00 00 00 00 00 00 00 00
 1.908820 1  241             Rx   d 8 AA 00 00 00 00 00 02 91
 1.909070 1  251             Rx   d 8 00 00 00 00 FF FF DF 26
 1.909327 1  252             Rx   d 8 00 00 00 06 FF FF DD 9E
 1.909538 1  253             Rx   d 8 00 00 00 01 00 00 23 98
 1.909761 1  263             Rx   d 8 01 ED 00 27 18 40 00 00
 1.910020 1  254             Rx   d 8 00 00 00 02 00 00 21 EA
 1.910266 1  255             Rx   d 8 00 00 00 00 FF FF FF F0
 1.910512 1  256             Rx   d 8 00 00 00 03 00 00 00 02
 1.910761 1  257             Rx   d 8 00 00 00 01 FF FF FF F4
 1.911020 1  258             Rx   d 8 00 00 00 00 00 00 00 49
 1.911252 1  268             Rx   d 8 01 E9 00 28 1C 40 00 00
 1.911510 1  231             Rx   d 8 00 01 00 00 00 00 00 91
 1.911762 1  311             Rx   d 8 FF FF FE BA FF FF FE 72
 1.911994 1  312             Rx   d 8 FF FF FE 94 FF FF FE 58
 1.912227 1  211             Rx   d 8 00 01 01 EF 00 00 00 00
 1.912380 1  291             Rx   d 3 00 00 00
 1.929131 1  221             Rx   d 8 00 00 00 00 00 00 00 00
 1.929332 1  281             Rx   d 8 00 00 00 00 00 00 00 00
 1.929579 1  271             Rx   d 8 00 00 00 00 00 00 00 00
 1.929926 1  241             Rx   d 8 AA 00 00 00 00 00 02 92
 1.930065 1  251             Rx   d 8 00 00 00 00 FF FF DF 27
 1.930323 1  252             Rx   d 8 00 00 00 06 FF FF DD 9E
 1.930554 1  253             Rx   d 8 00 00 00 00 00 00 23 98
 1.930763 1  254             Rx   d 8 00 00 00 00 00 00 21 EA
 1.931024 1  255             Rx   d 8 00 00 00 00 FF FF FF F0
 1.931321 1  265             Rx   d 8 01 E8 00 28 1C 40 00 00
 1.931533 1  256             Rx   d 8 00 00 00 03 00 00 00 02
 1.931765 1  257             Rx   d 8 00 00 00 01 FF FF FF F4
 1.932000 1  258             Rx   d 8 00 00 00 01 00 00 00 49
 1.932261 1  231             Rx   d 8 00 01 00 00 00 00 00 92
 1.932493 1  311             Rx   d 8 FF FF FE BA FF FF FE 72
 1.932756 1  312             Rx   d 8 FF FF FE 94 FF FF FE 58
 1.932972 1  211             Rx   d 8 00 01 01 EF 00 00 00 00
 1.933108 1  291             Rx   d 3 00 00 00
 1.950129 1  221             Rx   d 8 00 00 00 00 00 00 00 00
 1.950307 1  281             Rx   d 8 00 00 00 00 00 00 00 00
 1.950541 1  271             Rx   d 8 00 00 00 00 00 00 00 00
 1.950788 1  241             Rx   d 8 AA 00 00 00 00 00 02 93
 1.951020 1  251             Rx   d 8 00 00 00 00 FF FF DF 27
 1.951303 1  252             Rx   d 8 00 00 00 06 FF FF DD 9F
 1.951512 1  262             Rx   d 8 01 EB 00 27 19 40 00 00
 1.951765 1  253             Rx   d 8 00 00 00 00 00 00 23 98
 1.951995 1  254             Rx   d 8 00 00 00 01 00 00 21 EA
 1.952253 1  255             Rx   d 8 00 00 00 00 FF FF FF F0
 1.952486 1  256             Rx   d 8 00 00 00 03 00 00 00 02
 1.952762 1  257             Rx   d 8 00 00 00 00 FF FF FF F4
 1.952992 1  267             Rx   d 8 01 E5 00 27 1B 40 00 00
 1.953250 1  258             Rx   d 8 00 00 00 01 00 00 00 49
 1.953488 1  231             Rx   d 8 00 01 00 00 00 00 00 93
 1.953710 1  311             Rx   d 8 FF FF FE BA FF FF FE 72
 1.953969 1  312             Rx   d 8 FF FF FE 94 FF FF FE 58
 1.954204 1  211             Rx   d 8 00 01 01 EF 00 00 00 00
 1.954359 1  291             Rx   d 3 00 00 00
 1.971100 1  221             Rx   d 8 00 00 00 00 00 00 00 00
 1.971332 1  281             Rx   d 8 00 00 00 00 00 00 00 00
 1.971564 1  271             Rx   d 8 00 00 00 00 00 00 00 00
 1.971811 1  241             Rx   d 8 AA 00 00 00 00 00 02 94
 1.972048 1  251             Rx   d 8 00 00 00 00 FF FF DF 26
 1.972298 1  252             Rx   d 8 00 00 00 05 FF FF DD 9E
 1.972540 1  253             Rx   d 8 00 00 00 01 00 00 23 98
 1.972767 1  254             Rx   d 8 00 00 00 01 00 00 21 EA
 1.973018 1  264             Rx   d 8 01 E5 00 27 19 40 00 00
 1.973263 1  255             Rx   d 8 00 00 00 00 FF FF FF F0
 1.973536 1  256             Rx   d 8 00 00 00 03 00 00 00 02
 1.973760 1  257             Rx   d 8 00 00 00 00 FF FF FF F4
 1.974019 1  258             Rx   d 8 00 00 00 02 00 00 00 49
 1.974263 1  231             Rx   d 8 00 01 00 00 00 00 00 94
 1.974510 1  311             Rx   d 8 FF FF FE BA FF FF FE 72
 1.974734 1  312             Rx   d 8 FF FF FE 94 FF FF FE 58
 1.974993 1  211             Rx   d 8 00 01 01 EF 00 00 00 00
 1.975148 1  291             Rx   d 3 00 00 00
 1.992113 1  221             Rx   d 8 00 00 00 00 00 00 00 00
 1.992332 1  281             Rx   d 8 00 00 00 00 00 00 00 00
 1.992563 1  271             Rx   d 8 00 00 00 00 00 00 00 00
 1.992835 1  241             Rx   d 8 AA 00 00 00 00 00 02 95
 1.993070 1  251             Rx   d 8 00 00 00 00 FF FF DF 27
 1.993319 1  261             Rx   d 8 01 E7 00 27 1C 40 00 00
 1.993561 1  252             Rx   d 8 00 00 00 07 FF FF DD 9F
 1.993773 1  253             Rx   d 8 00 00 00 01 00 00 23 98
 1.994047 1  254             Rx   d 8 00 00 00 01 00 00 21 EA
 1.994266 1  255             Rx   d 8 00 00 00 00 FF FF FF F0
 1.994539 1  256             Rx   d 8 00 00 00 03 00 00 00 02
 1.994785 1  266             Rx   d 8 01 E6 00 28 1C 40 00 00
 1.995043 1  257             Rx   d 8 00 00 00 00 FF FF FF F4
 1.995271 1  258             Rx   d 8 00 00 00 01 00 00 00 49
 1.995509 1  231             Rx   d 8 00 01 00 00 00 00 00 95
 1.995759 1  311             Rx   d 8 FF FF FE BA FF FF FE 72
 1.995994 1  312             Rx   d 8 FF FF FE 94 FF FF FE 58
 1.996211 1  211             Rx   d 8 00 01 01 EF 00 00 00 00
 1.996422 1  291             Rx   d 3 00 00 00
 2.013106 1  221             Rx   d 8 00 00 00 00 00 00 00 00
 2.013307 1  281             Rx   d 8 00 00 00 00 00 00 00 00
 2.013562 1  271             Rx   d 8 00 00 00 00 00 00 00 00
 2.013811 1  241             Rx   d 8 AA 00 00 00 00 00 02 96
 2.014041 1  251             Rx   d 8 00 00 00 00 FF FF DF 26
 2.014324 1  252             Rx   d 8 00 00 00 00 FF FF DD 9E
 2.014534 1  253             Rx   d 8 00 00 00 01 00 00 23 98
 2.014785 1  263             Rx   d 8 01 ED 00 27 18 40 00 00
 2.015014 1  254             Rx   d 8 00 00 00 01 00 00 21 EA
 2.015278 1  255             Rx   d 8 00 00 00 00 FF FF FF F0
 2.015509 1  256             Rx   d 8 00 00 00 03 00 00 00 02
 2.015786 1  257             Rx   d 8 00 00 00 00 FF FF FF F4
 2.015998 1  258             Rx   d 8 00 00 00 02 00 00 00 28
 2.016261 1  268             Rx   d 8 01 E9 00 28 1D 40 00 00
 2.016493 1  231             Rx   d 8 00 01 00 00 00 00 00 96
 2.016714 1  311             Rx   d 8 FF FF FE BA FF FF FE 72
 2.016988 1  312             Rx   d 8 FF FF FE 94 FF FF FE 58
 2.017224 1  211             Rx   d 8 00 01 01 EF 00 00 00 00
 2.017377 1  291             Rx   d 3 00 00 00
 2.034085 1  221             Rx   d 8 00 00 00 00 00 00 00 00
 2.034336 1  281             Rx   d 8 00 00 00 00 00 00 00 00
 2.034557 1  271             Rx   d 8 00 00 00 00 00 00 00 00
 2.034811 1  241             Rx   d 8 AA 00 00 00 00 00 02 97
 2.035074 1  251             Rx   d 8 00 00 00 00 FF FF DF 27
 2.035307 1  252             Rx   d 8 00 00 00 06 FF FF DD 9E
 2.035538 1  253             Rx   d 8 00 00 00 01 00 00 23 98
 2.035786 1  254             Rx   d 8 00 00 00 01 00 00 21 EA
 2.036017 1  255             Rx   d 8 00 00 00 00 FF FF FF F0
 2.036263 1  265             Rx   d 8 01 E8 00 28 1C 40 00 00
 2.036509 1  256             Rx   d 8 00 00 00 03 00 00 00 02
 2.036786 1  257             Rx   d 8 00 00 00 01 FF FF FF F4
 2.037019 1  258             Rx   d 8 FF FD 00 02 00 00 00 22
 2.037254 1  231             Rx   d 8 00 01 00 00 00 00 00 97
 2.037513 1  311             Rx   d 8 FF FF FE BA FF FF FE 72
 2.037732 1  312             Rx   d 8 FF FF FE 94 FF FF FE 58
 2.037964 1  211             Rx   d 8 00 01 01 EF 00 00 00 00
 2.038142 1  291             Rx   d 3 00 00 00
 2.055110 1  221             Rx   d 8 00 00 00 00 00 00 00 00
 2.055333 1  281             Rx   d 8 00 00 00 00 00 00 00 00
 2.055557 1  271             Rx   d 8 00 00 00 00 00 00 00 00
 2.055813 1  241             Rx   d 8 AA 00 00 00 00 00 02 98
 2.056056 1  251             Rx   d 8 00 00 00 00 FF FF DF 27
 2.056285 1  252             Rx   d 8 00 00 00 06 FF FF DD 9E
 2.056539 1  262             Rx   d 8 01 EB 00 27 19 40 00 00
 2.056785 1  253             Rx   d 8 00 00 00 01 00 00 23 98
 2.057018 1  254             Rx   d 8 00 00 00 02 00 00 21 EA
 2.057263 1  255             Rx   d 8 00 00 00 00 FF FF FF F0
 2.057510 1  256             Rx   d 8 00 00 00 03 00 00 00 02
 2.057760 1  257             Rx   d 8 00 00 00 00 FF FF FF F4
 2.058018 1  267             Rx   d 8 01 E5 00 27 1B 40 00 00
 2.058250 1  258             Rx   d 8 FF FD 00 01 00 00 00 07
 2.058509 1  231             Rx   d 8 00 01 00 00 00 00 00 98
 2.058734 1  311             Rx   d 8 FF FF FE BA FF FF FE 72
 2.058968 1  312             Rx   d 8 FF FF FE 94 FF FF FE 58
 2.059203 1  211             Rx   d 8 00 01 01 EF 00 00 00 00
 2.059382 1  291             Rx   d 3 00 00 00
 2.076108 1  221             Rx   d 8 00 00 00 00 00 00 00 00
 2.076318 1  281             Rx   d 8 00 00 00 00 00 00 00 00
 2.076576 1  271             Rx   d 8 00 00 00 00 00 00 00 00
