date Sun Jul 27 08:46:09.379 2025
base hex  timestamps absolute
internal events logged
Begin Triggerblock Sun Jul 27 08:46:09.389 2025
 0.000000 Start of measurement
 0.000000 1  221             Rx   d 8 00 00 00 00 00 00 00 00
 0.000194 1  281             Rx   d 8 00 00 00 00 00 00 00 00
 0.000397 1  271             Rx   d 8 00 00 00 00 00 00 00 00
 0.000655 1  241             Rx   d 8 00 7E 7E 7E 7E 7E 00 7A
 0.000890 1  251             Rx   d 8 00 00 00 00 FF FF D4 22
 0.001149 1  252             Rx   d 8 00 00 00 01 FF FF D4 13
 0.001380 1  262             Rx   d 8 01 EF 00 2A 1D 40 00 00
 0.001626 1  253             Rx   d 8 00 00 00 00 00 00 2C 82
 0.001864 1  254             Rx   d 8 00 00 00 01 00 00 2B CF
 0.002120 1  255             Rx   d 8 00 00 00 00 00 00 00 00
 0.002353 1  256             Rx   d 8 00 00 00 00 00 00 00 00
 0.002648 1  257             Rx   d 8 00 00 00 00 00 00 00 00
 0.002866 1  267             Rx   d 8 01 E9 00 2B 1F 40 00 00
 0.003102 1  258             Rx   d 8 00 00 00 00 00 00 00 00
 0.003356 1  231             Rx   d 8 00 00 00 00 00 00 00 7A
 0.003604 1  311             Rx   d 8 FF FF FE B6 FF FF FE B5
 0.003841 1  312             Rx   d 8 FF FF FE B0 FF FF FE B5
 0.004096 1  211             Rx   d 8 00 01 01 F2 00 00 00 00
 0.004244 1  291             Rx   d 3 00 00 00
 0.020965 1  221             Rx   d 8 00 00 00 00 00 00 00 00
 0.021175 1  281             Rx   d 8 00 00 00 00 00 00 00 00
 0.021467 1  271             Rx   d 8 00 00 00 00 00 00 00 00
 0.021652 1  241             Rx   d 8 00 7E 7E 7E 7E 7E 00 7B
 0.021913 1  251             Rx   d 8 00 00 00 00 FF FF D4 22
 0.022146 1  252             Rx   d 8 00 00 00 00 FF FF D4 14
 0.022397 1  253             Rx   d 8 00 00 00 00 00 00 2C 82
 0.022650 1  254             Rx   d 8 00 00 00 00 00 00 2B CF
 0.022884 1  264             Rx   d 8 01 E8 00 2A 1D 40 00 00
 0.023143 1  255             Rx   d 8 00 00 00 00 00 00 00 00
 0.023394 1  256             Rx   d 8 00 00 00 00 00 00 00 00
 0.023646 1  257             Rx   d 8 00 00 00 00 00 00 00 00
 0.023907 1  258             Rx   d 8 00 00 00 00 00 00 00 00
 0.024166 1  231             Rx   d 8 00 00 00 00 00 00 00 7B
 0.024391 1  311             Rx   d 8 FF FF FE B6 FF FF FE B5
 0.024622 1  312             Rx   d 8 FF FF FE B0 FF FF FE B5
 0.024860 1  211             Rx   d 8 00 01 01 F2 00 00 00 00
 0.025041 1  291             Rx   d 3 00 00 00
 0.041992 1  221             Rx   d 8 00 00 00 00 00 00 00 00
 0.042172 1  281             Rx   d 8 00 00 00 00 00 00 00 00
 0.042398 1  271             Rx   d 8 00 00 00 00 00 00 00 00
 0.042681 1  241             Rx   d 8 00 7E 7E 7E 7E 7E 00 7C
 0.042936 1  251             Rx   d 8 00 00 00 00 FF FF D4 22
 0.043148 1  261             Rx   d 8 01 EA 00 2A 1F 40 00 00
 0.043383 1  252             Rx   d 8 00 00 00 01 FF FF D4 13
 0.043647 1  253             Rx   d 8 00 00 00 00 00 00 2C 82
 0.043887 1  254             Rx   d 8 00 00 00 00 00 00 2B CF
 0.044119 1  255             Rx   d 8 00 00 00 00 00 00 00 00
 0.044379 1  256             Rx   d 8 00 00 00 00 00 00 00 00
 0.044629 1  266             Rx   d 8 01 E9 00 2C 20 40 00 00
 0.044861 1  257             Rx   d 8 00 00 00 00 00 00 00 00
 0.045117 1  258             Rx   d 8 00 00 00 00 00 00 00 00
 0.045372 1  231             Rx   d 8 00 00 00 00 00 00 00 7C
 0.045623 1  311             Rx   d 8 FF FF FE B6 FF FF FE B5
 0.045850 1  312             Rx   d 8 FF FF FE B0 FF FF FE B5
 0.046088 1  211             Rx   d 8 00 01 01 F2 00 00 00 00
 0.046272 1  291             Rx   d 3 00 00 00
 0.062931 1  221             Rx   d 8 00 00 00 00 00 00 00 00
 0.063164 1  281             Rx   d 8 00 00 00 00 00 00 00 00
 0.063490 1  271             Rx   d 8 00 00 00 00 00 00 00 00
 0.063772 1  241             Rx   d 8 00 7E 7E 7E 7E 7E 00 7D
 0.063917 1  251             Rx   d 8 00 00 00 00 FF FF D4 22
 0.064151 1  252             Rx   d 8 00 00 00 00 FF FF D4 14
 0.064417 1  253             Rx   d 8 00 00 00 01 00 00 2C 82
 0.064651 1  263             Rx   d 8 01 F0 00 2A 1C 40 00 00
 0.064869 1  254             Rx   d 8 00 00 00 00 00 00 2B CF
 0.065115 1  255             Rx   d 8 00 00 00 00 00 00 00 00
 0.065381 1  256             Rx   d 8 00 00 00 00 00 00 00 00
 0.065630 1  257             Rx   d 8 00 00 00 00 00 00 00 00
 0.065850 1  258             Rx   d 8 00 00 00 00 00 00 00 00
 0.066121 1  268             Rx   d 8 01 ED 00 2B 1F 40 00 00
 0.066379 1  231             Rx   d 8 00 00 00 00 00 00 00 7D
 0.066631 1  311             Rx   d 8 FF FF FE B6 FF FF FE B5
 0.066837 1  312             Rx   d 8 FF FF FE B0 FF FF FE B5
 0.067106 1  211             Rx   d 8 00 01 01 F2 00 00 00 00
 0.067274 1  291             Rx   d 3 00 00 00
 0.083980 1  221             Rx   d 8 00 00 00 00 00 00 00 00
 0.084195 1  281             Rx   d 8 00 00 00 00 00 00 00 00
 0.084404 1  271             Rx   d 8 00 00 00 00 00 00 00 00
 0.084673 1  241             Rx   d 8 00 7E 7E 7E 7E 7E 00 7E
 0.084892 1  251             Rx   d 8 00 00 00 00 FF FF D4 22
 0.085152 1  252             Rx   d 8 00 00 00 00 FF FF D4 14
 0.085383 1  253             Rx   d 8 00 00 00 00 00 00 2C 82
 0.085626 1  254             Rx   d 8 00 00 00 00 00 00 2B CF
 0.085886 1  255             Rx   d 8 00 00 00 00 00 00 00 00
 0.086120 1  265             Rx   d 8 01 EB 00 2B 1F 40 00 00
 0.086378 1  256             Rx   d 8 00 00 00 00 00 00 00 00
 0.086645 1  257             Rx   d 8 00 00 00 00 00 00 00 00
 0.086887 1  258             Rx   d 8 00 00 00 00 00 00 00 00
 0.087121 1  231             Rx   d 8 00 00 00 00 00 00 00 7E
 0.087394 1  311             Rx   d 8 FF FF FE B6 FF FF FE B5
 0.087602 1  312             Rx   d 8 FF FF FE B0 FF FF FE B5
 0.087836 1  211             Rx   d 8 00 01 01 F2 00 00 00 00
 0.088017 1  291             Rx   d 3 00 00 00
 0.104969 1  221             Rx   d 8 00 00 00 00 00 00 00 00
 0.105170 1  281             Rx   d 8 00 00 00 00 00 00 00 00
 0.105398 1  271             Rx   d 8 00 00 00 00 00 00 00 00
 0.105652 1  241             Rx   d 8 00 7E 7E 7E 7E 7E 00 7F
 0.105888 1  251             Rx   d 8 00 00 00 00 FF FF D4 22
 0.106146 1  252             Rx   d 8 00 00 00 01 FF FF D4 13
 0.106372 1  262             Rx   d 8 01 EF 00 2A 1D 40 00 00
 0.106625 1  253             Rx   d 8 00 00 00 00 00 00 2C 82
 0.106857 1  254             Rx   d 8 00 00 00 01 00 00 2B CF
 0.107116 1  255             Rx   d 8 00 00 00 00 00 00 00 00
 0.107345 1  256             Rx   d 8 00 00 00 00 00 00 00 00
 0.107625 1  257             Rx   d 8 00 00 00 00 00 00 00 00
 0.107857 1  267             Rx   d 8 01 E9 00 2B 1F 40 00 00
 0.108116 1  258             Rx   d 8 00 00 00 00 00 00 00 00
 0.108348 1  231             Rx   d 8 00 00 00 00 00 00 00 7F
 0.108600 1  311             Rx   d 8 FF FF FE B6 FF FF FE B5
 0.108836 1  312             Rx   d 8 FF FF FE B0 FF FF FE B5
 0.109066 1  211             Rx   d 8 00 01 01 F2 00 00 00 00
 0.109268 1  291             Rx   d 3 00 00 00
 0.109396 1  212             Rx   d 4 00 07 01 02
 0.113194 1  361             Rx   d 8 3A 64 13 42 FF FB 01 21
 0.113399 1  362             Rx   d 8 00 00 00 00 00 00 02 06
 0.125968 1  221             Rx   d 8 00 00 00 00 00 00 00 00
 0.126235 1  281             Rx   d 8 00 00 00 00 00 00 00 00
 0.126398 1  271             Rx   d 8 00 00 00 00 00 00 00 00
 0.126635 1  241             Rx   d 8 00 7E 7E 7E 7E 7E 00 80
 0.126873 1  251             Rx   d 8 00 00 00 00 FF FF D4 22
 0.127165 1  252             Rx   d 8 00 00 00 00 FF FF D4 13
 0.127398 1  253             Rx   d 8 00 00 00 00 00 00 2C 82
 0.127650 1  254             Rx   d 8 00 00 00 01 00 00 2B CF
 0.127900 1  264             Rx   d 8 01 E8 00 2A 1D 40 00 00
 0.128140 1  255             Rx   d 8 00 00 00 00 00 00 00 00
 0.128366 1  256             Rx   d 8 00 00 00 00 00 00 00 00
 0.128650 1  257             Rx   d 8 00 00 00 00 00 00 00 00
 0.128882 1  258             Rx   d 8 00 00 00 00 00 00 00 00
 0.129140 1  231             Rx   d 8 00 00 00 00 00 00 00 80
 0.129373 1  311             Rx   d 8 FF FF FE B6 FF FF FE B5
 0.129598 1  312             Rx   d 8 FF FF FE B0 FF FF FE B5
 0.129860 1  211             Rx   d 8 00 01 01 F2 00 00 00 00
 0.130014 1  291             Rx   d 3 00 00 00
 0.146968 1  221             Rx   d 8 00 00 00 00 00 00 00 00
 0.147219 1  281             Rx   d 8 00 00 00 00 00 00 00 00
 0.147507 1  271             Rx   d 8 00 00 00 00 00 00 00 00
 0.147722 1  241             Rx   d 8 00 7E 7E 7E 7E 7E 00 81
 0.147957 1  251             Rx   d 8 00 00 00 00 FF FF D4 22
 0.148167 1  261             Rx   d 8 01 EA 00 2A 1F 40 00 00
 0.148418 1  252             Rx   d 8 00 00 00 01 FF FF D4 13
 0.148649 1  253             Rx   d 8 00 00 00 00 00 00 2C 82
 0.148907 1  254             Rx   d 8 00 00 00 00 00 00 2B CF
 0.149140 1  255             Rx   d 8 00 00 00 00 00 00 00 00
 0.149390 1  256             Rx   d 8 00 00 00 00 00 00 00 00
 0.149649 1  266             Rx   d 8 01 E9 00 2C 20 40 00 00
 0.149881 1  257             Rx   d 8 00 00 00 00 00 00 00 00
 0.150138 1  258             Rx   d 8 00 00 00 00 00 00 00 00
 0.150391 1  231             Rx   d 8 00 00 00 00 00 00 00 81
 0.150623 1  311             Rx   d 8 FF FF FE B6 FF FF FE B5
 0.150886 1  312             Rx   d 8 FF FF FE B0 FF FF FE B5
 0.151102 1  211             Rx   d 8 00 01 01 F2 00 00 00 00
 0.151273 1  291             Rx   d 3 00 00 00
 0.167960 1  221             Rx   d 8 00 00 00 00 00 00 00 00
 0.168213 1  281             Rx   d 8 00 00 00 00 00 00 00 00
 0.168589 1  271             Rx   d 8 00 00 00 00 00 00 00 00
 0.168674 1  241             Rx   d 8 00 7E 7E 7E 7E 7E 00 82
 0.168907 1  251             Rx   d 8 00 00 00 00 FF FF D4 22
 0.169144 1  252             Rx   d 8 00 00 00 01 FF FF D4 13
 0.169379 1  253             Rx   d 8 00 00 00 00 00 00 2C 82
 0.169628 1  263             Rx   d 8 01 F0 00 2A 1C 40 00 00
 0.169906 1  254             Rx   d 8 00 00 00 00 00 00 2B CF
 0.170120 1  255             Rx   d 8 00 00 00 00 00 00 00 00
 0.170378 1  256             Rx   d 8 00 00 00 00 00 00 00 00
 0.170630 1  257             Rx   d 8 00 00 00 00 00 00 00 00
 0.170884 1  258             Rx   d 8 00 00 00 00 00 00 00 00
 0.171122 1  268             Rx   d 8 01 ED 00 2B 1F 40 00 00
 0.171395 1  231             Rx   d 8 00 00 00 00 00 00 00 82
 0.171649 1  311             Rx   d 8 FF FF FE B6 FF FF FE B5
 0.171860 1  312             Rx   d 8 FF FF FE B0 FF FF FE B5
 0.172112 1  211             Rx   d 8 00 01 01 F2 00 00 00 00
 0.172271 1  291             Rx   d 3 00 00 00
 0.188973 1  221             Rx   d 8 00 00 00 00 00 00 00 00
 0.189169 1  281             Rx   d 8 00 00 00 00 00 00 00 00
 0.189409 1  271             Rx   d 8 00 00 00 00 00 00 00 00
 0.189676 1  241             Rx   d 8 00 7E 7E 7E 7E 7E 00 83
 0.189911 1  251             Rx   d 8 00 00 00 00 FF FF D4 22
 0.190171 1  252             Rx   d 8 00 00 00 00 FF FF D4 13
 0.190394 1  253             Rx   d 8 00 00 00 01 00 00 2C 82
 0.190648 1  254             Rx   d 8 00 00 00 01 00 00 2B CF
 0.190906 1  255             Rx   d 8 00 00 00 00 00 00 00 00
 0.191139 1  265             Rx   d 8 01 EB 00 2B 1F 40 00 00
 0.191389 1  256             Rx   d 8 00 00 00 00 00 00 00 00
 0.191623 1  257             Rx   d 8 00 00 00 00 00 00 00 00
 0.191882 1  258             Rx   d 8 00 00 00 00 00 00 00 00
 0.192139 1  231             Rx   d 8 00 00 00 00 00 00 00 83
 0.192362 1  311             Rx   d 8 FF FF FE B6 FF FF FE B5
 0.192597 1  312             Rx   d 8 FF FF FE B0 FF FF FE B5
 0.192859 1  211             Rx   d 8 00 01 01 F2 00 00 00 00
 0.193013 1  291             Rx   d 3 00 00 00
 0.209961 1  221             Rx   d 8 00 00 00 00 00 00 00 00
 0.210297 1  281             Rx   d 8 00 00 00 00 00 00 00 00
 0.210412 1  271             Rx   d 8 00 00 00 00 00 00 00 00
 0.210676 1  241             Rx   d 8 00 7E 7E 7E 7E 7E 00 84
 0.210912 1  251             Rx   d 8 00 00 00 00 FF FF D4 22
 0.211144 1  252             Rx   d 8 00 00 00 00 FF FF D4 14
 0.211396 1  262             Rx   d 8 01 EF 00 2A 1D 40 00 00
 0.211650 1  253             Rx   d 8 00 00 00 00 00 00 2C 82
 0.211885 1  254             Rx   d 8 00 00 00 00 00 00 2B CF
 0.212143 1  255             Rx   d 8 00 00 00 00 00 00 00 00
 0.212396 1  256             Rx   d 8 00 00 00 00 00 00 00 00
 0.212624 1  257             Rx   d 8 00 00 00 00 00 00 00 00
 0.212885 1  267             Rx   d 8 01 E9 00 2B 1F 40 00 00
 0.213115 1  258             Rx   d 8 00 00 00 00 00 00 00 00
 0.213377 1  231             Rx   d 8 00 00 00 00 00 00 00 84
 0.213623 1  311             Rx   d 8 FF FF FE B6 FF FF FE B5
 0.213860 1  312             Rx   d 8 FF FF FE B0 FF FF FE B5
 0.214096 1  211             Rx   d 8 00 01 01 F2 00 00 00 00
 0.214272 1  291             Rx   d 3 00 00 00
 0.230969 1  221             Rx   d 8 00 00 00 00 00 00 00 00
 0.231323 1  281             Rx   d 8 00 00 00 00 00 00 00 00
 0.231554 1  271             Rx   d 8 00 00 00 00 00 00 00 00
 0.231809 1  241             Rx   d 8 00 7E 7E 7E 7E 7E 00 85
 0.231939 1  251             Rx   d 8 00 00 00 00 FF FF D4 22
 0.232171 1  252             Rx   d 8 00 00 00 01 FF FF D4 13
 0.232414 1  253             Rx   d 8 00 00 00 00 00 00 2C 82
 0.232650 1  254             Rx   d 8 00 00 00 00 00 00 2B CF
 0.232908 1  264             Rx   d 8 01 E8 00 2A 1D 40 00 00
 0.233145 1  255             Rx   d 8 00 00 00 00 00 00 00 00
 0.233391 1  256             Rx   d 8 00 00 00 00 00 00 00 00
 0.233649 1  257             Rx   d 8 00 00 00 00 00 00 00 00
 0.233885 1  258             Rx   d 8 00 00 00 00 00 00 00 00
 0.234122 1  231             Rx   d 8 00 00 00 00 00 00 00 85
 0.234374 1  311             Rx   d 8 FF FF FE B6 FF FF FE B5
 0.234604 1  312             Rx   d 8 FF FF FE B0 FF FF FE B5
 0.234840 1  211             Rx   d 8 00 01 01 F2 00 00 00 00
 0.235022 1  291             Rx   d 3 00 00 00
 0.251960 1  221             Rx   d 8 00 00 00 00 00 00 00 00
 0.252174 1  281             Rx   d 8 00 00 00 00 00 00 00 00
 0.252398 1  271             Rx   d 8 00 00 00 00 00 00 00 00
 0.252653 1  241             Rx   d 8 00 7E 7E 7E 7E 7E 00 86
 0.252917 1  251             Rx   d 8 00 00 00 00 FF FF D4 22
 0.253166 1  261             Rx   d 8 01 EA 00 2A 1F 40 00 00
 0.253378 1  252             Rx   d 8 00 00 00 01 FF FF D4 13
 0.253625 1  253             Rx   d 8 00 00 00 00 00 00 2C 82
 0.253886 1  254             Rx   d 8 00 00 00 00 00 00 2B CF
 0.254116 1  255             Rx   d 8 00 00 00 00 00 00 00 00
 0.254375 1  256             Rx   d 8 00 00 00 00 00 00 00 00
 0.254625 1  266             Rx   d 8 01 E9 00 2C 20 40 00 00
 0.503912 1  221             Rx   d 8 00 00 00 00 00 00 00 00
 0.504143 1  281             Rx   d 8 00 00 00 00 00 00 00 00
 0.504393 1  271             Rx   d 8 00 00 00 00 00 00 00 00
 0.504650 1  241             Rx   d 8 00 7E 7E 7E 7E 7E 00 92
 0.504912 1  251             Rx   d 8 00 00 00 00 FF FF D4 22
 0.505145 1  252             Rx   d 8 00 00 00 00 FF FF D4 14
 0.505377 1  253             Rx   d 8 00 00 00 01 00 00 2C 82
 0.505623 1  254             Rx   d 8 00 00 00 00 00 00 2B CF
 0.505881 1  255             Rx   d 8 00 00 00 00 00 00 00 00
 0.506112 1  265             Rx   d 8 01 EB 00 2B 1F 40 00 00
 0.506373 1  256             Rx   d 8 00 00 00 00 00 00 00 00
 0.506622 1  257             Rx   d 8 00 00 00 00 00 00 00 00
 0.506880 1  258             Rx   d 8 00 00 00 00 00 00 00 00
 0.507114 1  231             Rx   d 8 00 00 00 00 00 00 00 92
 0.507347 1  311             Rx   d 8 FF FF FE B6 FF FF FE B5
 0.507572 1  312             Rx   d 8 FF FF FE B0 FF FF FE B5
 0.507833 1  211             Rx   d 8 00 01 01 F2 00 00 00 00
 0.507988 1  291             Rx   d 3 00 00 00
 0.514220 1  361             Rx   d 8 3A 64 13 42 FF FB 01 21
 0.514477 1  362             Rx   d 8 00 00 00 00 00 00 02 06
 0.524963 1  221             Rx   d 8 00 00 00 00 00 00 00 00
 0.525217 1  281             Rx   d 8 00 00 00 00 00 00 00 00
 0.525505 1  271             Rx   d 8 00 00 00 00 00 00 00 00
 0.525692 1  241             Rx   d 8 00 7E 7E 7E 7E 7E 00 93
 0.525901 1  251             Rx   d 8 00 00 00 00 FF FF D4 22
 0.526163 1  252             Rx   d 8 00 00 00 01 FF FF D4 14
 0.526391 1  262             Rx   d 8 01 EF 00 2A 1D 40 00 00
 0.526648 1  253             Rx   d 8 00 00 00 01 00 00 2C 82
 0.526881 1  254             Rx   d 8 00 00 00 00 00 00 2B CF
 0.527138 1  255             Rx   d 8 00 00 00 00 00 00 00 00
 0.527390 1  256             Rx   d 8 00 00 00 00 00 00 00 00
 0.527652 1  257             Rx   d 8 00 00 00 00 00 00 00 00
 0.527884 1  267             Rx   d 8 01 E9 00 2B 1F 40 00 00
 0.528142 1  258             Rx   d 8 00 00 00 00 00 00 00 00
 0.528369 1  231             Rx   d 8 00 00 00 00 00 00 00 93
 0.528648 1  311             Rx   d 8 FF FF FE B6 FF FF FE B5
 0.528859 1  312             Rx   d 8 FF FF FE B0 FF FF FE B5
 0.529121 1  211             Rx   d 8 00 01 01 F2 00 00 00 00
 0.529246 1  291             Rx   d 3 00 00 00
 0.545978 1  221             Rx   d 8 00 00 00 00 00 00 00 00
 0.546340 1  281             Rx   d 8 00 00 00 00 00 00 00 00
 0.546412 1  271             Rx   d 8 00 00 00 00 00 00 00 00
 0.546675 1  241             Rx   d 8 00 7E 7E 7E 7E 7E 00 94
 0.546912 1  251             Rx   d 8 00 00 00 00 FF FF D4 22
 0.547169 1  252             Rx   d 8 00 00 00 00 FF FF D4 13
 0.547395 1  253             Rx   d 8 00 00 00 01 00 00 2C 82
 0.547648 1  254             Rx   d 8 00 00 00 00 00 00 2B CF
 0.547880 1  264             Rx   d 8 01 E8 00 2A 1D 40 00 00
 0.548143 1  255             Rx   d 8 00 00 00 00 00 00 00 00
 0.548390 1  256             Rx   d 8 00 00 00 00 00 00 00 00
 0.548649 1  257             Rx   d 8 00 00 00 00 00 00 00 00
 0.548884 1  258             Rx   d 8 00 00 00 00 00 00 00 00
 0.549140 1  231             Rx   d 8 00 00 00 00 00 00 00 94
 0.549374 1  311             Rx   d 8 FF FF FE B6 FF FF FE B5
 0.549596 1  312             Rx   d 8 FF FF FE B0 FF FF FE B5
 0.549858 1  211             Rx   d 8 00 01 01 F2 00 00 00 00
 0.550010 1  291             Rx   d 3 00 00 00
 0.566959 1  221             Rx   d 8 00 00 00 00 00 00 00 00
 0.567168 1  281             Rx   d 8 00 00 00 00 00 00 00 00
 0.567411 1  271             Rx   d 8 00 00 00 00 00 00 00 00
 0.567675 1  241             Rx   d 8 00 7E 7E 7E 7E 7E 00 95
 0.567910 1  251             Rx   d 8 00 00 00 00 FF FF D4 22
 0.568142 1  261             Rx   d 8 01 EA 00 2A 1F 40 00 00
 0.568394 1  252             Rx   d 8 00 00 00 00 FF FF D4 14
 0.568644 1  253             Rx   d 8 00 00 00 01 00 00 2C 82
 0.568860 1  254             Rx   d 8 00 00 00 00 00 00 2B CF
 0.569119 1  255             Rx   d 8 00 00 00 00 00 00 00 00
 0.569376 1  256             Rx   d 8 00 00 00 00 00 00 00 00
 0.569625 1  266             Rx   d 8 01 E9 00 2C 20 40 00 00
 0.569860 1  257             Rx   d 8 00 00 00 00 00 00 00 00
 0.570138 1  258             Rx   d 8 00 00 00 00 00 00 00 00
 0.570351 1  231             Rx   d 8 00 00 00 00 00 00 00 95
 0.570600 1  311             Rx   d 8 FF FF FE B6 FF FF FE B5
 0.570838 1  312             Rx   d 8 FF FF FE B0 FF FF FE B5
 0.571101 1  211             Rx   d 8 00 01 01 F2 00 00 00 00
 0.571224 1  291             Rx   d 3 00 00 00
 0.588028 1  221             Rx   d 8 00 00 00 00 00 00 00 00
 0.588197 1  281             Rx   d 8 00 00 00 00 00 00 00 00
 0.588434 1  271             Rx   d 8 00 00 00 00 00 00 00 00
 0.588674 1  241             Rx   d 8 00 7E 7E 7E 7E 7E 00 96
 0.588910 1  251             Rx   d 8 00 00 00 00 FF FF D4 22
 0.589146 1  252             Rx   d 8 00 00 00 00 FF FF D4 13
 0.589395 1  253             Rx   d 8 00 00 00 01 00 00 2C 82
 0.589648 1  263             Rx   d 8 01 F0 00 2A 1C 40 00 00
 0.589884 1  254             Rx   d 8 00 00 00 00 00 00 2B CF
 0.590142 1  255             Rx   d 8 00 00 00 00 00 00 00 00
 0.590393 1  256             Rx   d 8 00 00 00 00 00 00 00 00
 0.590621 1  257             Rx   d 8 00 00 00 00 00 00 00 00
 0.590886 1  258             Rx   d 8 00 00 00 00 00 00 00 00
 0.591139 1  268             Rx   d 8 01 ED 00 2B 1F 40 00 00
 0.591371 1  231             Rx   d 8 00 00 00 00 00 00 00 96
 0.591620 1  311             Rx   d 8 FF FF FE B6 FF FF FE B5
 0.591854 1  312             Rx   d 8 FF FF FE B0 FF FF FE B5
 0.592067 1  211             Rx   d 8 00 01 01 F2 00 00 00 00
 0.592251 1  291             Rx   d 3 00 00 00
 0.609016 1  221             Rx   d 8 00 00 00 00 00 00 00 00
 0.609195 1  281             Rx   d 8 00 00 00 00 00 00 00 00
 0.609416 1  271             Rx   d 8 00 00 00 00 00 00 00 00
 0.609674 1  241             Rx   d 8 00 7E 7E 7E 7E 7E 00 97
 0.609910 1  251             Rx   d 8 00 00 00 00 FF FF D4 22
 0.610166 1  252             Rx   d 8 00 00 00 00 FF FF D4 13
 0.610392 1  253             Rx   d 8 00 00 00 02 00 00 2C 82
 0.610646 1  254             Rx   d 8 00 00 00 00 00 00 2B CF
 0.610906 1  255             Rx   d 8 00 00 00 00 00 00 00 00
 0.611136 1  265             Rx   d 8 01 EB 00 2B 1F 40 00 00
 0.611391 1  256             Rx   d 8 00 00 00 00 00 00 00 00
 0.611648 1  257             Rx   d 8 00 00 00 00 00 00 00 00
 0.611906 1  258             Rx   d 8 00 00 00 00 00 00 00 00
 0.612136 1  231             Rx   d 8 00 00 00 00 00 00 00 97
 0.612372 1  311             Rx   d 8 FF FF FE B6 FF FF FE B5
 0.612596 1  312             Rx   d 8 FF FF FE B0 FF FF FE B5
 0.612858 1  211             Rx   d 8 00 01 01 F2 00 00 00 00
 0.613012 1  291             Rx   d 3 00 00 00
 0.630005 1  221             Rx   d 8 00 00 00 00 00 00 00 00
 0.630311 1  281             Rx   d 8 00 00 00 00 00 00 00 00
 0.630487 1  271             Rx   d 8 00 00 00 00 00 00 00 00
 0.630700 1  241             Rx   d 8 00 7E 7E 7E 7E 7E 00 98
 0.630933 1  251             Rx   d 8 00 00 00 00 FF FF D4 22
 0.631170 1  252             Rx   d 8 00 00 00 00 FF FF D4 13
 0.631417 1  262             Rx   d 8 01 EF 00 2A 1D 40 00 00
 0.631672 1  253             Rx   d 8 00 00 00 01 00 00 2C 82
 0.631912 1  254             Rx   d 8 00 00 00 00 00 00 2B CF
 0.632187 1  255             Rx   d 8 00 00 00 00 00 00 00 00
 0.632394 1  256             Rx   d 8 00 00 00 00 00 00 00 00
 0.632648 1  257             Rx   d 8 00 00 00 00 00 00 00 00
 0.632907 1  267             Rx   d 8 01 E9 00 2B 1F 40 00 00
 0.633164 1  258             Rx   d 8 00 00 00 00 00 00 00 00
 0.633390 1  231             Rx   d 8 00 00 00 00 00 00 00 98
 0.633620 1  311             Rx   d 8 FF FF FE B6 FF FF FE B5
 0.633858 1  312             Rx   d 8 FF FF FE B0 FF FF FE B5
 0.634112 1  211             Rx   d 8 00 01 01 F2 00 00 00 00
 0.634252 1  291             Rx   d 3 00 00 00
 0.651024 1  221             Rx   d 8 00 00 00 00 00 00 00 00
 0.651191 1  281             Rx   d 8 00 00 00 00 00 00 00 00
 0.651484 1  271             Rx   d 8 00 00 00 00 00 00 00 00
 0.651679 1  241             Rx   d 8 00 7E 7E 7E 7E 7E 00 99
 0.651911 1  251             Rx   d 8 00 00 00 00 FF FF D4 22
 0.652162 1  252             Rx   d 8 00 00 00 01 FF FF D4 13
 0.652401 1  253             Rx   d 8 00 00 00 01 00 00 2C 82
 0.652628 1  254             Rx   d 8 00 00 00 00 00 00 2B CF
 0.652884 1  264             Rx   d 8 01 E8 00 2A 1E 40 00 00
 0.653140 1  255             Rx   d 8 00 00 00 00 00 00 00 00
 0.653391 1  256             Rx   d 8 00 00 00 00 00 00 00 00
 0.653647 1  257             Rx   d 8 00 00 00 00 00 00 00 00
 0.653862 1  258             Rx   d 8 00 00 00 00 00 00 00 00
 0.654143 1  231             Rx   d 8 00 00 00 00 00 00 00 99
 0.654367 1  311             Rx   d 8 FF FF FE B6 FF FF FE B5
 0.654602 1  312             Rx   d 8 FF FF FE B0 FF FF FE B5
 0.654836 1  211             Rx   d 8 00 01 01 F2 00 00 00 00
 0.655037 1  291             Rx   d 3 00 00 00
 0.672002 1  221             Rx   d 8 00 00 00 00 00 00 00 00
 0.672192 1  281             Rx   d 8 00 00 00 00 00 00 00 00
 0.672405 1  271             Rx   d 8 00 00 00 00 00 00 00 00
 0.672674 1  241             Rx   d 8 00 7E 7E 7E 7E 7E 00 9A
 0.672910 1  251             Rx   d 8 00 00 00 00 FF FF D4 22
 0.673175 1  261             Rx   d 8 01 EA 00 2A 1C 40 00 00
 0.673395 1  252             Rx   d 8 00 00 00 00 FF FF D4 13
 0.673647 1  253             Rx   d 8 00 00 00 01 00 00 2C 82
 0.673902 1  254             Rx   d 8 00 00 00 00 00 00 2B CF
 0.674142 1  255             Rx   d 8 00 00 00 00 00 00 00 00
 0.674390 1  256             Rx   d 8 00 00 00 00 00 00 00 00
 0.674647 1  266             Rx   d 8 01 E9 00 2C 20 40 00 00
 0.674883 1  257             Rx   d 8 00 00 00 00 00 00 00 00
 0.675138 1  258             Rx   d 8 00 00 00 00 00 00 00 00
 0.675363 1  231             Rx   d 8 00 00 00 00 00 00 00 9A
 0.675623 1  311             Rx   d 8 FF FF FE B6 FF FF FE B5
 0.675858 1  312             Rx   d 8 FF FF FE B0 FF FF FE B5
 0.676112 1  211             Rx   d 8 00 01 01 F2 00 00 00 00
 0.676273 1  291             Rx   d 3 00 00 00
 0.693086 1  221             Rx   d 8 00 00 00 00 00 00 00 00
 0.693197 1  281             Rx   d 8 00 00 00 00 00 00 00 00
 0.693491 1  271             Rx   d 8 00 00 00 00 00 00 00 00
 0.693670 1  241             Rx   d 8 00 7E 7E 7E 7E 7E 00 9B
 0.693905 1  251             Rx   d 8 00 00 00 00 FF FF D4 22
 0.694209 1  252             Rx   d 8 00 00 00 01 FF FF D4 14
 0.694392 1  253             Rx   d 8 00 00 00 01 00 00 2C 82
 0.694766 1  263             Rx   d 8 01 F0 00 2A 1C 40 00 00
 0.694928 1  254             Rx   d 8 00 00 00 00 00 00 2B CF
 0.695139 1  255             Rx   d 8 00 00 00 00 00 00 00 00
 0.695391 1  256             Rx   d 8 00 00 00 00 00 00 00 00
 0.695648 1  257             Rx   d 8 00 00 00 00 00 00 00 00
 0.695907 1  258             Rx   d 8 00 00 00 00 00 00 00 00
 0.696138 1  268             Rx   d 8 01 ED 00 2B 1F 40 00 00
 0.696378 1  231             Rx   d 8 00 00 00 00 00 00 00 9B
 0.696618 1  311             Rx   d 8 FF FF FE B6 FF FF FE B5
 0.696835 1  312             Rx   d 8 FF FF FE B0 FF FF FE B5
 0.697106 1  211             Rx   d 8 00 01 01 F2 00 00 00 00
 0.697265 1  291             Rx   d 3 00 00 00
 0.714000 1  221             Rx   d 8 00 00 00 00 00 00 00 00
 0.714195 1  281             Rx   d 8 00 00 00 00 00 00 00 00
 0.714414 1  271             Rx   d 8 00 00 00 00 00 00 00 00
 0.714725 1  241             Rx   d 8 00 7E 7E 7E 7E 7E 00 9C
 0.714938 1  251             Rx   d 8 00 00 00 00 FF FF D4 22
 0.715222 1  252             Rx   d 8 00 00 00 01 FF FF D4 14
 0.715422 1  253             Rx   d 8 00 00 00 02 00 00 2C 82
 0.715683 1  254             Rx   d 8 00 00 00 00 00 00 2B CF
 0.715919 1  255             Rx   d 8 00 00 00 00 00 00 00 00
 0.716173 1  265             Rx   d 8 01 EB 00 2B 1F 40 00 00
 0.716417 1  256             Rx   d 8 00 00 00 00 00 00 00 00
 0.716681 1  257             Rx   d 8 00 00 00 00 00 00 00 00
 0.716901 1  258             Rx   d 8 00 00 00 00 00 00 00 00
 0.717197 1  231             Rx   d 8 00 00 00 00 00 00 00 9C
 0.717393 1  311             Rx   d 8 FF FF FE B6 FF FF FE B5
 0.717597 1  312             Rx   d 8 FF FF FE B0 FF FF FE B5
 0.717854 1  211             Rx   d 8 00 01 01 F2 00 00 00 00
 0.718011 1  291             Rx   d 3 00 00 00
 0.735005 1  221             Rx   d 8 00 00 00 00 00 00 00 00
 0.735196 1  281             Rx   d 8 00 00 00 00 00 00 00 00
 0.735406 1  271             Rx   d 8 00 00 00 00 00 00 00 00
 0.735672 1  241             Rx   d 8 00 7E 7E 7E 7E 7E 00 9D
 0.735908 1  251             Rx   d 8 00 00 00 00 FF FF D4 22
 0.736122 1  252             Rx   d 8 00 00 00 01 FF FF D4 13
 0.736379 1  262             Rx   d 8 01 EF 00 2A 1D 40 00 00
 0.736646 1  253             Rx   d 8 00 00 00 02 00 00 2C 82
 0.736859 1  254             Rx   d 8 00 00 00 00 00 00 2B CF
 0.737116 1  255             Rx   d 8 00 00 00 00 00 00 00 00
 0.737376 1  256             Rx   d 8 00 00 00 00 00 00 00 00
 0.737627 1  257             Rx   d 8 00 00 00 00 00 00 00 00
 0.737860 1  267             Rx   d 8 01 E9 00 2B 1F 40 00 00
 0.738137 1  258             Rx   d 8 00 00 00 00 00 00 00 00
 0.738372 1  231             Rx   d 8 00 00 00 00 00 00 00 9D
 0.738595 1  311             Rx   d 8 FF FF FE B6 FF FF FE B5
 0.738859 1  312             Rx   d 8 FF FF FE B0 FF FF FE B5
 0.739067 1  211             Rx   d 8 00 01 01 F2 00 00 00 00
 0.739270 1  291             Rx   d 3 00 00 00
 0.756015 1  221             Rx   d 8 00 00 00 00 00 00 00 00
 0.756195 1  281             Rx   d 8 00 00 00 00 00 00 00 00
 0.756407 1  271             Rx   d 8 00 00 00 00 00 00 00 00
 0.756675 1  241             Rx   d 8 00 7E 7E 7E 7E 7E 00 9E
 0.756910 1  251             Rx   d 8 00 00 00 00 FF FF D4 22
 0.757169 1  252             Rx   d 8 00 00 00 00 FF FF D4 14
 0.757395 1  253             Rx   d 8 00 00 00 02 00 00 2C 82
 0.757647 1  254             Rx   d 8 00 00 00 00 00 00 2B CF
 0.757879 1  264             Rx   d 8 01 E8 00 2A 1F 40 00 00
 0.758138 1  255             Rx   d 8 00 00 00 00 00 00 00 00
 0.758393 1  256             Rx   d 8 00 00 00 00 00 00 00 00
 0.758647 1  257             Rx   d 8 00 00 00 00 00 00 00 00
 0.758905 1  258             Rx   d 8 00 00 00 00 00 00 00 00
 0.759138 1  231             Rx   d 8 00 00 00 00 00 00 00 9E
 0.759368 1  311             Rx   d 8 FF FF FE B6 FF FF FE B5
 0.759596 1  312             Rx   d 8 FF FF FE B0 FF FF FE B5
 0.759858 1  211             Rx   d 8 00 01 01 F2 00 00 00 00
 0.760013 1  291             Rx   d 3 00 00 00
 0.777001 1  221             Rx   d 8 00 00 00 00 00 00 00 00
 0.777194 1  281             Rx   d 8 00 00 00 00 00 00 00 00
 0.777416 1  271             Rx   d 8 00 00 00 00 00 00 00 00
 0.777674 1  241             Rx   d 8 00 7E 7E 7E 7E 7E 00 9F
 0.778043 1  251             Rx   d 8 00 00 00 00 FF FF D4 22
 0.778173 1  261             Rx   d 8 01 EA 00 2A 1C 40 00 00
 0.778392 1  252             Rx   d 8 00 00 00 01 FF FF D4 14
 0.778646 1  253             Rx   d 8 00 00 00 02 00 00 2C 82
 0.778901 1  254             Rx   d 8 00 00 00 00 00 00 2B CF
 0.779264 1  255             Rx   d 8 00 00 00 00 00 00 00 00
 0.779423 1  256             Rx   d 8 00 00 00 00 00 00 00 00
 0.779624 1  266             Rx   d 8 01 E9 00 2C 20 40 00 00
 0.779876 1  257             Rx   d 8 00 00 00 00 00 00 00 00
 0.780138 1  258             Rx   d 8 00 00 00 00 00 00 00 00
 0.780388 1  231             Rx   d 8 00 00 00 00 00 00 00 9F
 0.780648 1  311             Rx   d 8 FF FF FE B6 FF FF FE B5
 0.780873 1  312             Rx   d 8 FF FF FE B0 FF FF FE B5
 0.781152 1  211             Rx   d 8 00 01 01 F2 00 00 00 00
 0.781278 1  291             Rx   d 3 00 00 00
 0.798015 1  221             Rx   d 8 00 00 00 00 00 00 00 00
 0.798224 1  281             Rx   d 8 00 00 00 00 00 00 00 00
 0.798423 1  271             Rx   d 8 00 00 00 00 00 00 00 00
 0.798721 1  241             Rx   d 8 00 7E 7E 7E 7E 7E 00 A0
 0.798919 1  251             Rx   d 8 00 00 00 00 FF FF D4 22
 0.799180 1  252             Rx   d 8 00 00 00 00 FF FF D4 13
 0.799393 1  253             Rx   d 8 00 00 00 02 00 00 2C 82
 0.799644 1  263             Rx   d 8 01 F0 00 2A 1C 40 00 00
 0.799859 1  254             Rx   d 8 00 00 00 00 00 00 2B CF
 0.800114 1  255             Rx   d 8 00 00 00 00 00 00 00 00
 0.800373 1  256             Rx   d 8 00 00 00 00 00 00 00 00
 0.800625 1  257             Rx   d 8 00 00 00 00 00 00 00 00
 0.800905 1  258             Rx   d 8 00 00 00 00 00 00 00 00
 0.801114 1  268             Rx   d 8 01 ED 00 2B 1F 40 00 00
 0.801373 1  231             Rx   d 8 00 00 00 00 00 00 00 A0
 0.801600 1  311             Rx   d 8 FF FF FE B6 FF FF FE B5
 0.801832 1  312             Rx   d 8 FF FF FE B0 FF FF FE B5
 0.802097 1  211             Rx   d 8 00 01 01 F2 00 00 00 00
 0.802263 1  291             Rx   d 3 00 00 00
 0.818991 1  221             Rx   d 8 00 00 00 00 00 00 00 00
 0.819167 1  281             Rx   d 8 00 00 00 00 00 00 00 00
 0.819393 1  271             Rx   d 8 00 00 00 00 00 00 00 00
 0.819651 1  241             Rx   d 8 00 7E 7E 7E 7E 7E 00 A1
 0.819887 1  251             Rx   d 8 00 00 00 00 FF FF D4 22
 0.820144 1  252             Rx   d 8 00 00 00 00 FF FF D4 14
 0.820377 1  253             Rx   d 8 00 00 00 02 00 00 2C 82
 0.820625 1  254             Rx   d 8 00 00 00 00 00 00 2B CF
 0.820884 1  255             Rx   d 8 00 00 00 00 00 00 00 00
 0.821114 1  265             Rx   d 8 01 EB 00 2B 1F 40 00 00
 0.821372 1  256             Rx   d 8 00 00 00 00 00 00 00 00
 0.821622 1  257             Rx   d 8 00 00 00 00 00 00 00 00
 0.821880 1  258             Rx   d 8 00 00 00 00 00 00 00 00
 0.822113 1  231             Rx   d 8 00 00 00 00 00 00 00 A1
 0.822346 1  311             Rx   d 8 FF FF FE B6 FF FF FE B5
 0.822575 1  312             Rx   d 8 FF FF FE B0 FF FF FE B5
 0.822834 1  211             Rx   d 8 00 01 01 F2 00 00 00 00
 0.822988 1  291             Rx   d 3 00 00 00
 0.839997 1  221             Rx   d 8 00 00 00 00 00 00 00 00
 0.840195 1  281             Rx   d 8 00 00 00 00 00 00 00 00
 0.840410 1  271             Rx   d 8 00 00 00 00 00 00 00 00
 0.840681 1  241             Rx   d 8 00 7E 7E 7E 7E 7E 00 A2
 0.840910 1  251             Rx   d 8 00 00 00 00 FF FF D4 22
 0.841143 1  252             Rx   d 8 00 00 00 01 FF FF D4 14
 0.841394 1  262             Rx   d 8 01 EF 00 2A 1D 40 00 00
 0.841647 1  253             Rx   d 8 00 00 00 02 00 00 2C 82
 0.841905 1  254             Rx   d 8 00 00 00 03 00 00 2B CF
 0.842138 1  255             Rx   d 8 00 00 00 00 00 00 00 00
 0.842389 1  256             Rx   d 8 00 00 00 00 00 00 00 00
 0.842646 1  257             Rx   d 8 00 00 00 00 00 00 00 00
 0.842879 1  267             Rx   d 8 01 E9 00 2B 1F 40 00 00
 0.843139 1  258             Rx   d 8 00 00 00 00 00 00 00 00
 0.843364 1  231             Rx   d 8 00 00 00 00 00 00 00 A2
 0.843596 1  311             Rx   d 8 FF FF FE B6 FF FF FE B5
 0.843858 1  312             Rx   d 8 FF FF FE B0 FF FF FE B5
 0.844089 1  211             Rx   d 8 00 01 01 F2 00 00 00 00
 0.844244 1  291             Rx   d 3 00 00 00
 0.861016 1  221             Rx   d 8 00 00 00 00 00 00 00 00
 0.861190 1  281             Rx   d 8 00 00 00 00 00 00 00 00
 0.861486 1  271             Rx   d 8 00 00 00 00 00 00 00 00
 0.861673 1  241             Rx   d 8 00 7E 7E 7E 7E 7E 00 A3
 0.861932 1  251             Rx   d 8 00 00 00 00 FF FF D4 22
 0.862164 1  252             Rx   d 8 00 00 00 01 FF FF D4 13
 0.862409 1  253             Rx   d 8 00 00 00 02 00 00 2C 82
 0.862647 1  254             Rx   d 8 00 00 00 02 00 00 2B CF
 0.862905 1  264             Rx   d 8 01 E8 00 2A 1F 40 00 00
 0.863138 1  255             Rx   d 8 00 00 00 00 00 00 00 00
 0.863390 1  256             Rx   d 8 00 00 00 00 00 00 00 00
 0.863647 1  257             Rx   d 8 00 00 00 00 00 00 00 00
 0.863883 1  258             Rx   d 8 00 00 00 00 00 00 00 00
 0.864142 1  231             Rx   d 8 00 00 00 00 00 00 00 A3
 0.864367 1  311             Rx   d 8 FF FF FE B6 FF FF FE B5
 0.864647 1  312             Rx   d 8 FF FF FE B0 FF FF FE B5
 0.864892 1  211             Rx   d 8 00 01 01 F2 00 00 00 00
 0.865048 1  291             Rx   d 3 00 00 00
 0.881969 1  221             Rx   d 8 00 00 00 00 00 00 00 00
 0.882214 1  281             Rx   d 8 00 00 00 00 00 00 00 00
 0.882486 1  271             Rx   d 8 00 00 00 00 00 00 00 00
 0.882696 1  241             Rx   d 8 00 7E 7E 7E 7E 7E 00 A4
 0.882932 1  251             Rx   d 8 00 00 00 00 FF FF D4 22
 0.883164 1  261             Rx   d 8 01 EA 00 2A 1C 40 00 00
 0.883407 1  252             Rx   d 8 00 00 00 00 FF FF D4 13
 0.883645 1  253             Rx   d 8 00 00 00 02 00 00 2C 82
 0.883909 1  254             Rx   d 8 00 00 00 02 00 00 2B CF
 0.884140 1  255             Rx   d 8 00 00 00 00 00 00 00 00
 0.884392 1  256             Rx   d 8 00 00 00 00 00 00 00 00
 0.884616 1  266             Rx   d 8 01 E9 00 2C 20 40 00 00
 0.884877 1  257             Rx   d 8 00 00 00 00 00 00 00 00
 0.885140 1  258             Rx   d 8 00 00 00 00 00 00 00 00
 0.885350 1  231             Rx   d 8 00 00 00 00 00 00 00 A4
 0.885599 1  311             Rx   d 8 FF FF FE B6 FF FF FE B5
 0.885838 1  312             Rx   d 8 FF FF FE B0 FF FF FE B5
 0.886084 1  211             Rx   d 8 00 01 01 F2 00 00 00 00
 0.886249 1  291             Rx   d 3 00 00 00
 0.902961 1  221             Rx   d 8 00 00 00 00 00 00 00 00
 0.903191 1  281             Rx   d 8 00 00 00 00 00 00 00 00
 0.903397 1  271             Rx   d 8 00 00 00 00 00 00 00 00
 0.903654 1  241             Rx   d 8 00 7E 7E 7E 7E 7E 00 A5
 0.903913 1  251             Rx   d 8 00 00 00 00 FF FF D4 22
 0.904147 1  252             Rx   d 8 00 00 00 01 FF FF D4 13
 0.904381 1  253             Rx   d 8 00 00 00 02 00 00 2C 82
 0.904625 1  263             Rx   d 8 01 F0 00 2A 1C 40 00 00
 0.904881 1  254             Rx   d 8 00 00 00 02 00 00 2B CF
 0.905117 1  255             Rx   d 8 00 00 00 00 00 00 00 00
 0.905376 1  256             Rx   d 8 00 00 00 00 00 00 00 00
 0.905626 1  257             Rx   d 8 00 00 00 00 00 00 00 00
 0.905881 1  258             Rx   d 8 00 00 00 00 00 00 00 00
 0.906118 1  268             Rx   d 8 01 ED 00 2B 1F 40 00 00
 0.906351 1  231             Rx   d 8 00 00 00 00 00 00 00 A5
 0.906602 1  311             Rx   d 8 FF FF FE B6 FF FF FE B5
 0.906837 1  312             Rx   d 8 FF FF FE B0 FF FF FE B5
 0.907066 1  211             Rx   d 8 00 01 01 F2 00 00 00 00
 0.907269 1  291             Rx   d 3 00 00 00
 0.915248 1  361             Rx   d 8 3A 64 13 42 FF FB 01 21
 0.915475 1  362             Rx   d 8 00 00 00 00 00 00 02 06
 0.923984 1  221             Rx   d 8 00 00 00 00 00 00 00 00
 0.924193 1  281             Rx   d 8 00 00 00 00 00 00 00 00
 0.924484 1  271             Rx   d 8 00 00 00 00 00 00 00 00
 0.924670 1  241             Rx   d 8 00 7E 7E 7E 7E 7E 00 A6
 0.924905 1  251             Rx   d 8 00 00 00 00 FF FF D4 22
 0.925164 1  252             Rx   d 8 00 00 00 01 FF FF D4 13
 0.925391 1  253             Rx   d 8 00 00 00 02 00 00 2C 82
 0.925647 1  254             Rx   d 8 00 00 00 02 00 00 2B CF
 0.925909 1  255             Rx   d 8 00 00 00 00 00 00 00 00
 0.926138 1  265             Rx   d 8 01 EB 00 2B 1F 40 00 00
 0.926389 1  256             Rx   d 8 00 00 00 00 00 00 00 00
 0.926646 1  257             Rx   d 8 00 00 00 00 00 00 00 00
 0.926902 1  258             Rx   d 8 00 00 00 00 00 00 00 00
 0.927140 1  231             Rx   d 8 00 00 00 00 00 00 00 A6
 0.927374 1  311             Rx   d 8 FF FF FE B6 FF FF FE B5
 0.927587 1  312             Rx   d 8 FF FF FE B0 FF FF FE B5
 0.927857 1  211             Rx   d 8 00 01 01 F2 00 00 00 00
 0.928014 1  291             Rx   d 3 00 00 00
 0.944961 1  221             Rx   d 8 00 00 00 00 00 00 00 00
 0.945193 1  281             Rx   d 8 00 00 00 00 00 00 00 00
 0.945415 1  271             Rx   d 8 00 00 00 00 00 00 00 00
 0.945673 1  241             Rx   d 8 00 7E 7E 7E 7E 7E 00 A7
 0.945909 1  251             Rx   d 8 00 00 00 00 FF FF D4 22
 0.946167 1  252             Rx   d 8 00 00 00 00 FF FF D4 13
 0.946392 1  262             Rx   d 8 01 EF 00 2A 1D 40 00 00
 0.946645 1  253             Rx   d 8 00 00 00 02 00 00 2C 82
 0.946878 1  254             Rx   d 8 00 00 00 03 00 00 2B CF
 0.947135 1  255             Rx   d 8 00 00 00 00 00 00 00 00
 0.947389 1  256             Rx   d 8 00 00 00 00 00 00 00 00
 0.947636 1  257             Rx   d 8 00 00 00 00 00 00 00 00
 0.947905 1  267             Rx   d 8 01 E9 00 2B 1F 40 00 00
 0.948142 1  258             Rx   d 8 00 00 00 00 00 00 00 00
 0.948373 1  231             Rx   d 8 00 00 00 00 00 00 00 A7
 0.948597 1  311             Rx   d 8 FF FF FE B6 FF FF FE B5
 0.948858 1  312             Rx   d 8 FF FF FE B0 FF FF FE B5
 0.949089 1  211             Rx   d 8 00 01 01 F2 00 00 00 00
 0.949271 1  291             Rx   d 3 00 00 00
 0.966019 1  221             Rx   d 8 00 00 00 00 00 00 00 00
 0.966167 1  281             Rx   d 8 00 00 00 00 00 00 00 00
 0.966411 1  271             Rx   d 8 00 00 00 00 00 00 00 00
 0.966672 1  241             Rx   d 8 00 7E 7E 7E 7E 7E 00 A8
 0.966911 1  251             Rx   d 8 00 00 00 00 FF FF D4 22
 0.967168 1  252             Rx   d 8 00 00 00 01 FF FF D4 14
 0.967375 1  253             Rx   d 8 00 00 00 02 00 00 2C 82
 0.967626 1  254             Rx   d 8 00 00 00 02 00 00 2B CF
 0.967873 1  264             Rx   d 8 01 E8 00 2A 1F 40 00 00
 0.968118 1  255             Rx   d 8 00 00 00 00 00 00 00 00
 0.968374 1  256             Rx   d 8 00 00 00 00 00 00 00 00
 0.968625 1  257             Rx   d 8 00 00 00 00 00 00 00 00
 0.968884 1  258             Rx   d 8 00 00 00 00 00 00 00 00
 0.969137 1  231             Rx   d 8 00 00 00 00 00 00 00 A8
 0.969366 1  311             Rx   d 8 FF FF FE B6 FF FF FE B5
 0.969594 1  312             Rx   d 8 FF FF FE B0 FF FF FE B5
 0.969855 1  211             Rx   d 8 00 01 01 F2 00 00 00 00
 0.969992 1  291             Rx   d 3 00 00 00
 0.986942 1  221             Rx   d 8 00 00 00 00 00 00 00 00
 0.987190 1  281             Rx   d 8 00 00 00 00 00 00 00 00
 0.987460 1  271             Rx   d 8 00 00 00 00 00 00 00 00
 0.987647 1  241             Rx   d 8 00 7E 7E 7E 7E 7E 00 A9
 0.987905 1  251             Rx   d 8 00 00 00 00 FF FF D4 22
 0.988139 1  261             Rx   d 8 01 EA 00 2A 1C 40 00 00
 0.988371 1  252             Rx   d 8 00 00 00 01 FF FF D4 13
 0.988621 1  253             Rx   d 8 00 00 00 02 00 00 2C 82
 0.988853 1  254             Rx   d 8 00 00 00 03 00 00 2B CF
 0.989113 1  255             Rx   d 8 00 00 00 00 00 00 00 00
 0.989372 1  256             Rx   d 8 00 00 00 00 00 00 00 00
 0.989596 1  266             Rx   d 8 01 E9 00 2C 20 40 00 00
 0.989858 1  257             Rx   d 8 00 00 00 00 00 00 00 00
 0.990117 1  258             Rx   d 8 00 00 00 00 00 00 00 00
 0.990350 1  231             Rx   d 8 00 00 00 00 00 00 00 A9
 0.990599 1  311             Rx   d 8 FF FF FE B6 FF FF FE B5
 0.990828 1  312             Rx   d 8 FF FF FE B0 FF FF FE B5
 0.991091 1  211             Rx   d 8 00 01 01 F2 00 00 00 00
 0.991214 1  291             Rx   d 3 00 00 00
 1.007934 1  221             Rx   d 8 00 00 00 00 00 00 00 00
 1.008168 1  281             Rx   d 8 00 00 00 00 00 00 00 00
 1.008388 1  271             Rx   d 8 00 00 00 00 00 00 00 00
 1.008644 1  241             Rx   d 8 00 7E 7E 7E 7E 7E 00 AA
 1.008879 1  251             Rx   d 8 00 00 00 00 FF FF D4 22
 1.009139 1  252             Rx   d 8 00 00 00 00 FF FF D4 14
 1.009372 1  253             Rx   d 8 00 00 00 03 00 00 2C 82
 1.009618 1  263             Rx   d 8 01 F0 00 2A 1C 40 00 00
 1.009879 1  254             Rx   d 8 00 00 00 02 00 00 2B CF
 1.010112 1  255             Rx   d 8 00 00 00 00 00 00 00 00
 1.010366 1  256             Rx   d 8 00 00 00 00 00 00 00 00
 1.010617 1  257             Rx   d 8 00 00 00 00 00 00 00 00
 1.010854 1  258             Rx   d 8 00 00 00 00 00 00 00 00
 1.011113 1  268             Rx   d 8 01 ED 00 2B 1F 40 00 00
 1.011345 1  231             Rx   d 8 00 00 00 00 00 00 00 AA
 1.011592 1  311             Rx   d 8 FF FF FE B6 FF FF FE B5
 1.011828 1  312             Rx   d 8 FF FF FE B0 FF FF FE B5
 1.012059 1  211             Rx   d 8 00 01 01 F2 00 00 00 00
 1.012240 1  291             Rx   d 3 00 00 00
 1.028965 1  221             Rx   d 8 00 00 00 00 00 00 00 00
 1.029190 1  281             Rx   d 8 00 00 00 00 00 00 00 00
 1.029410 1  271             Rx   d 8 00 00 00 00 00 00 00 00
 1.029659 1  241             Rx   d 8 00 7E 7E 7E 7E 7E 00 AB
 1.029930 1  251             Rx   d 8 00 00 00 00 FF FF D4 22
 1.030164 1  252             Rx   d 8 00 00 00 00 FF FF D4 14
 1.030408 1  253             Rx   d 8 00 00 00 04 00 00 2C 82
 1.030672 1  254             Rx   d 8 00 00 00 02 00 00 2B CF
 1.030904 1  255             Rx   d 8 00 00 00 00 00 00 00 00
 1.031135 1  265             Rx   d 8 01 EB 00 2B 1F 40 00 00
 1.031409 1  256             Rx   d 8 00 00 00 00 00 00 00 00
 1.031646 1  257             Rx   d 8 00 00 00 00 00 00 00 00
 1.031908 1  258             Rx   d 8 00 00 00 00 00 00 00 00
 1.032144 1  231             Rx   d 8 00 00 00 00 00 00 00 AB
 1.032390 1  311             Rx   d 8 FF FF FE B6 FF FF FE B5
 1.032619 1  312             Rx   d 8 FF FF FE B0 FF FF FE B5
 1.032833 1  211             Rx   d 8 00 01 01 F2 00 00 00 00
 1.033010 1  291             Rx   d 3 00 00 00
 1.049958 1  221             Rx   d 8 00 00 00 00 00 00 00 00
 1.050194 1  281             Rx   d 8 00 00 00 00 00 00 00 00
 1.050412 1  271             Rx   d 8 00 00 00 00 00 00 00 00
 1.050671 1  241             Rx   d 8 00 7E 7E 7E 7E 7E 00 AC
 1.050908 1  251             Rx   d 8 00 00 00 00 FF FF D4 22
 1.051167 1  252             Rx   d 8 00 00 00 01 FF FF D4 13
 1.051393 1  262             Rx   d 8 01 EF 00 2A 1D 40 00 00
 1.051642 1  253             Rx   d 8 00 00 00 00 00 00 2C 82
 1.051903 1  254             Rx   d 8 00 00 00 02 00 00 2B CF
 1.052118 1  255             Rx   d 8 00 00 00 00 00 00 00 00
 1.052377 1  256             Rx   d 8 00 00 00 00 00 00 00 00
 1.052624 1  257             Rx   d 8 00 00 00 00 00 00 00 00
 1.052859 1  267             Rx   d 8 01 E9 00 2B 1F 40 00 00
 1.053117 1  258             Rx   d 8 00 00 00 00 00 00 00 00
 1.053374 1  231             Rx   d 8 00 00 00 00 00 00 00 AC
 1.053598 1  311             Rx   d 8 FF FF FE B6 FF FF FE B5
 1.053833 1  312             Rx   d 8 FF FF FE B0 FF FF FE B5
 1.054067 1  211             Rx   d 8 00 01 01 F2 00 00 00 00
 1.054265 1  291             Rx   d 3 00 00 00
 1.070961 1  221             Rx   d 8 00 00 00 00 00 00 00 00
 1.071212 1  281             Rx   d 8 00 00 00 00 00 00 00 00
 1.071420 1  271             Rx   d 8 00 00 00 00 00 00 00 00
 1.071654 1  241             Rx   d 8 00 7E 7E 7E 7E 7E 00 AD
 1.071931 1  251             Rx   d 8 00 00 00 00 FF FF D4 22
 1.072147 1  252             Rx   d 8 00 00 00 00 FF FF D4 14
 1.072410 1  253             Rx   d 8 00 00 00 01 00 00 2C 82
 1.072626 1  254             Rx   d 8 00 00 00 02 00 00 2B CF
 1.072882 1  264             Rx   d 8 01 E8 00 2A 1F 40 00 00
 1.073137 1  255             Rx   d 8 00 00 00 00 00 00 00 00
 1.073388 1  256             Rx   d 8 00 00 00 00 00 00 00 00
 1.073646 1  257             Rx   d 8 00 00 00 00 00 00 00 00
 1.073880 1  258             Rx   d 8 00 00 00 00 00 00 00 00
 1.074141 1  231             Rx   d 8 00 00 00 00 00 00 00 AD
 1.074394 1  311             Rx   d 8 FF FF FE B6 FF FF FE B5
 1.074621 1  312             Rx   d 8 FF FF FE B0 FF FF FE B5
 1.074857 1  211             Rx   d 8 00 01 01 F2 00 00 00 00
 1.075037 1  291             Rx   d 3 00 00 00
 1.091964 1  221             Rx   d 8 00 00 00 00 00 00 00 00
 1.092190 1  281             Rx   d 8 00 00 00 00 00 00 00 00
 1.092485 1  271             Rx   d 8 00 00 00 00 00 00 00 00
 1.092676 1  241             Rx   d 8 00 7E 7E 7E 7E 7E 00 AE
 1.092906 1  251             Rx   d 8 00 00 00 00 FF FF D4 22
 1.093138 1  261             Rx   d 8 01 EA 00 2A 1C 40 00 00
 1.093389 1  252             Rx   d 8 00 00 00 01 FF FF D4 14
 1.093625 1  253             Rx   d 8 00 00 00 05 00 00 2C 82
 1.093884 1  254             Rx   d 8 00 00 00 03 00 00 2B CF
 1.094118 1  255             Rx   d 8 00 00 00 00 00 00 00 00
 1.094374 1  256             Rx   d 8 00 00 00 00 00 00 00 00
 1.094621 1  266             Rx   d 8 01 E9 00 2C 20 40 00 00
 1.094856 1  257             Rx   d 8 00 00 00 00 00 00 00 00
 1.095115 1  258             Rx   d 8 00 00 00 00 00 00 00 00
 1.095370 1  231             Rx   d 8 00 00 00 00 00 00 00 AE
 1.095595 1  311             Rx   d 8 FF FF FE B6 FF FF FE B5
 1.095832 1  312             Rx   d 8 FF FF FE B0 FF FF FE B5
 1.096078 1  211             Rx   d 8 00 01 01 F2 00 00 00 00
 1.096241 1  291             Rx   d 3 00 00 00
 1.112963 1  221             Rx   d 8 00 00 00 00 00 00 00 00
 1.113236 1  281             Rx   d 8 00 00 00 00 00 00 00 00
 1.113416 1  271             Rx   d 8 00 00 00 00 00 00 00 00
 1.113802 1  241             Rx   d 8 00 7E 7E 7E 7E 7E 00 AF
 1.113939 1  251             Rx   d 8 00 00 00 00 FF FF D4 22
 1.114169 1  252             Rx   d 8 00 00 00 00 FF FF D4 13
 1.114412 1  253             Rx   d 8 00 00 00 00 00 00 2C 82
 1.114645 1  263             Rx   d 8 01 F0 00 2A 1C 40 00 00
 1.114933 1  254             Rx   d 8 00 00 00 02 00 00 2B CF
 1.115136 1  255             Rx   d 8 00 00 00 00 00 00 00 00
 1.115389 1  256             Rx   d 8 00 00 00 00 00 00 00 00
 1.115667 1  257             Rx   d 8 00 00 00 00 00 00 00 00
 1.116019 1  258             Rx   d 8 00 00 00 00 00 00 00 00
 1.116144 1  268             Rx   d 8 01 ED 00 2B 1F 40 00 00
 1.116372 1  231             Rx   d 8 00 00 00 00 00 00 00 AF
 1.116619 1  311             Rx   d 8 FF FF FE B6 FF FF FE B5
 1.116856 1  312             Rx   d 8 FF FF FE B0 FF FF FE B5
 1.117160 1  211             Rx   d 8 00 01 01 F2 00 00 00 00
 1.117247 1  291             Rx   d 3 00 00 00
 1.134006 1  221             Rx   d 8 00 00 00 00 00 00 00 00
 1.134192 1  281             Rx   d 8 00 00 00 00 00 00 00 00
 1.134475 1  271             Rx   d 8 00 00 00 00 00 00 00 00
 1.134649 1  241             Rx   d 8 00 7E 7E 7E 7E 7E 00 B0
 1.134928 1  251             Rx   d 8 00 00 00 00 FF FF D4 22
 1.135164 1  252             Rx   d 8 00 00 00 00 FF FF D4 13
 1.135406 1  253             Rx   d 8 00 00 00 00 00 00 2C 82
 1.135644 1  254             Rx   d 8 00 00 00 02 00 00 2B CF
 1.135904 1  255             Rx   d 8 00 00 00 00 00 00 00 00
 1.136120 1  265             Rx   d 8 01 EB 00 2B 1F 40 00 00
 1.136377 1  256             Rx   d 8 00 00 00 00 00 00 00 00
 1.136626 1  257             Rx   d 8 00 00 00 00 00 00 00 00
 1.136886 1  258             Rx   d 8 00 00 00 00 00 00 00 00
 1.137141 1  231             Rx   d 8 00 00 00 00 00 00 00 B0
 1.137377 1  311             Rx   d 8 FF FF FE B6 FF FF FE B5
 1.137599 1  312             Rx   d 8 FF FF FE B0 FF FF FE B5
 1.137829 1  211             Rx   d 8 00 01 01 F2 00 00 00 00
 1.138012 1  291             Rx   d 3 00 00 00
 1.154995 1  221             Rx   d 8 00 00 00 00 00 00 00 00
 1.155193 1  281             Rx   d 8 00 00 00 00 00 00 00 00
 1.155460 1  271             Rx   d 8 00 00 00 00 00 00 00 00
 1.155673 1  241             Rx   d 8 00 7E 7E 7E 7E 7E 00 B1
 1.155906 1  251             Rx   d 8 00 00 00 00 FF FF D4 22
 1.156165 1  252             Rx   d 8 00 00 00 01 FF FF D4 13
 1.156397 1  262             Rx   d 8 01 EF 00 2A 1D 40 00 00
 1.156648 1  253             Rx   d 8 00 00 00 04 00 00 2C 82
 1.156883 1  254             Rx   d 8 00 00 00 03 00 00 2B CF
 1.157141 1  255             Rx   d 8 00 00 00 00 00 00 00 00
 1.157373 1  256             Rx   d 8 00 00 00 00 00 00 00 00
 1.157620 1  257             Rx   d 8 00 00 00 00 00 00 00 00
 1.157879 1  267             Rx   d 8 01 E9 00 2B 1F 40 00 00
 1.158112 1  258             Rx   d 8 00 00 00 00 00 00 00 00
 1.158370 1  231             Rx   d 8 00 00 00 00 00 00 00 B1
 1.158621 1  311             Rx   d 8 FF FF FE B6 FF FF FE B5
 1.158857 1  312             Rx   d 8 FF FF FE B0 FF FF FE B5
 1.159074 1  211             Rx   d 8 00 01 01 F2 00 00 00 00
 1.159237 1  291             Rx   d 3 00 00 00
 1.176026 1  221             Rx   d 8 00 00 00 00 00 00 00 00
 1.176194 1  281             Rx   d 8 00 00 00 00 00 00 00 00
 1.176485 1  271             Rx   d 8 00 00 00 00 00 00 00 00
 1.176669 1  241             Rx   d 8 00 7E 7E 7E 7E 7E 00 B2
 1.176949 1  251             Rx   d 8 00 00 00 00 FF FF D4 22
 1.177164 1  252             Rx   d 8 00 00 00 01 FF FF D4 13
 1.177389 1  253             Rx   d 8 00 00 00 00 00 00 2C 82
 1.177644 1  254             Rx   d 8 00 00 00 03 00 00 2B CF
 1.177904 1  264             Rx   d 8 01 E8 00 2A 1F 40 00 00
 1.178162 1  255             Rx   d 8 00 00 00 00 00 00 00 00
 1.178388 1  256             Rx   d 8 00 00 00 00 00 00 00 00
 1.178642 1  257             Rx   d 8 00 00 00 00 00 00 00 00
 1.178902 1  258             Rx   d 8 00 00 00 00 00 00 00 00
 1.179136 1  231             Rx   d 8 00 00 00 00 00 00 00 B2
 1.179367 1  311             Rx   d 8 FF FF FE B6 FF FF FE B5
 1.179617 1  312             Rx   d 8 FF FF FE B0 FF FF FE B5
 1.179855 1  211             Rx   d 8 00 01 01 F2 00 00 00 00
 1.179992 1  291             Rx   d 3 00 00 00
 1.196991 1  221             Rx   d 8 00 00 00 00 00 00 00 00
 1.197189 1  281             Rx   d 8 00 00 00 00 00 00 00 00
 1.197482 1  271             Rx   d 8 00 00 00 00 00 00 00 00
 1.197650 1  241             Rx   d 8 00 7E 7E 7E 7E 7E 00 B3
 1.197883 1  251             Rx   d 8 00 00 00 00 FF FF D4 22
 1.198139 1  261             Rx   d 8 01 EA 00 2A 1C 40 00 00
 1.198406 1  252             Rx   d 8 00 00 00 00 FF FF D4 13
 1.198622 1  253             Rx   d 8 00 00 00 00 00 00 2C 82
 1.198856 1  254             Rx   d 8 00 00 00 03 00 00 2B CF
 1.199133 1  255             Rx   d 8 00 00 00 00 00 00 00 00
 1.199372 1  256             Rx   d 8 00 00 00 00 00 00 00 00
 1.199620 1  266             Rx   d 8 01 E9 00 2C 20 40 00 00
 1.199852 1  257             Rx   d 8 00 00 00 00 00 00 00 00
 1.200110 1  258             Rx   d 8 00 00 00 00 00 00 00 00
 1.200344 1  231             Rx   d 8 00 00 00 00 00 00 00 B3
 1.200596 1  311             Rx   d 8 FF FF FE B6 FF FF FE B5
 1.200834 1  312             Rx   d 8 FF FF FE B0 FF FF FE B5
 1.201095 1  211             Rx   d 8 00 01 01 F2 00 00 00 00
 1.201218 1  291             Rx   d 3 00 00 00
 1.217966 1  221             Rx   d 8 00 00 00 00 00 00 00 00
 1.218187 1  281             Rx   d 8 00 00 00 00 00 00 00 00
 1.218460 1  271             Rx   d 8 00 00 00 00 00 00 00 00
 1.218647 1  241             Rx   d 8 00 7E 7E 7E 7E 7E 00 B4
 1.218907 1  251             Rx   d 8 00 00 00 00 FF FF D4 22
 1.219141 1  252             Rx   d 8 00 00 00 00 FF FF D4 14
 1.219390 1  253             Rx   d 8 00 00 00 00 00 00 2C 82
 1.219644 1  263             Rx   d 8 01 F0 00 2A 1C 40 00 00
 1.219927 1  254             Rx   d 8 00 00 00 02 00 00 2B CF
 1.220114 1  255             Rx   d 8 00 00 00 00 00 00 00 00
 1.220371 1  256             Rx   d 8 00 00 00 00 00 00 00 00
 1.220621 1  257             Rx   d 8 00 00 00 00 00 00 00 00
 1.220903 1  258             Rx   d 8 00 00 00 00 00 00 00 00
 1.221138 1  268             Rx   d 8 01 ED 00 2B 1F 40 00 00
 1.221387 1  231             Rx   d 8 00 00 00 00 00 00 00 B4
 1.221620 1  311             Rx   d 8 FF FF FE B6 FF FF FE B5
 1.221853 1  312             Rx   d 8 FF FF FE B0 FF FF FE B5
 1.222119 1  211             Rx   d 8 00 01 01 F2 00 00 00 00
 1.222261 1  291             Rx   d 3 00 00 00
 1.238997 1  221             Rx   d 8 00 00 00 00 00 00 00 00
 1.239190 1  281             Rx   d 8 00 00 00 00 00 00 00 00
 1.239392 1  271             Rx   d 8 00 00 00 00 00 00 00 00
 1.239671 1  241             Rx   d 8 00 7E 7E 7E 7E 7E 00 B5
 1.239905 1  251             Rx   d 8 00 00 00 00 FF FF D4 22
 1.240139 1  252             Rx   d 8 00 00 00 00 FF FF D4 13
 1.240372 1  253             Rx   d 8 00 00 00 00 00 00 2C 82
 1.240647 1  254             Rx   d 8 00 00 00 00 00 00 2B CF
 1.240905 1  255             Rx   d 8 00 00 00 00 00 00 00 00
 1.241139 1  265             Rx   d 8 01 EB 00 2B 1F 40 00 00
 1.241370 1  256             Rx   d 8 00 00 00 00 00 00 00 00
 1.241621 1  257             Rx   d 8 00 00 00 00 00 00 00 00
 1.241902 1  258             Rx   d 8 00 00 00 00 00 00 00 00
 1.242161 1  231             Rx   d 8 00 00 00 00 00 00 00 B5
 1.242375 1  311             Rx   d 8 FF FF FE B6 FF FF FE B5
 1.242595 1  312             Rx   d 8 FF FF FE B0 FF FF FE B5
 1.242830 1  211             Rx   d 8 00 01 01 F2 00 00 00 00
 1.243008 1  291             Rx   d 3 00 00 00
 1.260020 1  221             Rx   d 8 00 00 00 00 00 00 00 00
 1.260195 1  281             Rx   d 8 00 00 00 00 00 00 00 00
 1.260485 1  271             Rx   d 8 00 00 00 00 00 00 00 00
 1.260674 1  241             Rx   d 8 00 7E 7E 7E 7E 7E 00 B6
 1.260931 1  251             Rx   d 8 00 00 00 00 FF FF D4 22
 1.261164 1  252             Rx   d 8 00 00 00 00 FF FF D4 13
 1.261389 1  262             Rx   d 8 01 EF 00 2A 1D 40 00 00
 1.261645 1  253             Rx   d 8 00 00 00 00 00 00 2C 82
 1.261903 1  254             Rx   d 8 00 00 00 04 00 00 2B CF
 1.262134 1  255             Rx   d 8 00 00 00 00 00 00 00 00
 1.262388 1  256             Rx   d 8 00 00 00 00 00 00 00 00
 1.262645 1  257             Rx   d 8 00 00 00 00 00 00 00 00
 1.262903 1  267             Rx   d 8 01 E9 00 2B 1F 40 00 00
 1.263134 1  258             Rx   d 8 00 00 00 00 00 00 00 00
 1.263376 1  231             Rx   d 8 00 00 00 00 00 00 00 B6
 1.263600 1  311             Rx   d 8 FF FF FE B6 FF FF FE B5
 1.263833 1  312             Rx   d 8 FF FF FE B0 FF FF FE B5
 1.264096 1  211             Rx   d 8 00 01 01 F2 00 00 00 00
 1.264249 1  291             Rx   d 3 00 00 00
 1.280961 1  221             Rx   d 8 00 00 00 00 00 00 00 00
 1.281194 1  281             Rx   d 8 00 00 00 00 00 00 00 00
 1.281478 1  271             Rx   d 8 00 00 00 00 00 00 00 00
 1.281697 1  241             Rx   d 8 00 7E 7E 7E 7E 7E 00 B7
 1.281911 1  251             Rx   d 8 00 00 00 00 FF FF D4 22
 1.282189 1  252             Rx   d 8 00 00 00 01 FF FF D4 14
 1.282404 1  253             Rx   d 8 00 00 00 00 00 00 2C 82
 1.282652 1  254             Rx   d 8 00 00 00 00 00 00 2B CF
 1.282883 1  264             Rx   d 8 01 E8 00 2A 1F 40 00 00
 1.283143 1  255             Rx   d 8 00 00 00 00 00 00 00 00
 1.283406 1  256             Rx   d 8 00 00 00 00 00 00 00 00
 1.283626 1  257             Rx   d 8 00 00 00 00 00 00 00 00
 1.283906 1  258             Rx   d 8 00 00 00 00 00 00 00 00
 1.284165 1  231             Rx   d 8 00 00 00 00 00 00 00 B7
 1.284375 1  311             Rx   d 8 FF FF FE B6 FF FF FE B5
 1.284627 1  312             Rx   d 8 FF FF FE B0 FF FF FE B5
 1.284856 1  211             Rx   d 8 00 01 01 F2 00 00 00 00
 1.285009 1  291             Rx   d 3 00 00 00
 1.301955 1  221             Rx   d 8 00 00 00 00 00 00 00 00
 1.302171 1  281             Rx   d 8 00 00 00 00 00 00 00 00
 1.302451 1  271             Rx   d 8 00 00 00 00 00 00 00 00
 1.302675 1  241             Rx   d 8 00 7E 7E 7E 7E 7E 00 B8
 1.302926 1  251             Rx   d 8 00 00 00 00 FF FF D4 22
 1.303160 1  261             Rx   d 8 01 EA 00 2A 1E 40 00 00
 1.303373 1  252             Rx   d 8 00 00 00 00 FF FF D4 13
 1.303671 1  253             Rx   d 8 00 00 00 05 00 00 2C 82
 1.303884 1  254             Rx   d 8 00 00 00 04 00 00 2B CF
 1.304164 1  255             Rx   d 8 00 00 00 00 00 00 00 00
 1.304389 1  256             Rx   d 8 00 00 00 00 00 00 00 00
 1.304626 1  266             Rx   d 8 01 E9 00 2C 20 40 00 00
 1.304854 1  257             Rx   d 8 00 00 00 00 00 00 00 00
 1.305112 1  258             Rx   d 8 00 00 00 00 00 00 00 00
 1.305370 1  231             Rx   d 8 00 00 00 00 00 00 00 B8
 1.305596 1  311             Rx   d 8 FF FF FE B6 FF FF FE B5
 1.305834 1  312             Rx   d 8 FF FF FE B0 FF FF FE B5
 1.306086 1  211             Rx   d 8 00 01 01 F2 00 00 00 00
 1.306243 1  291             Rx   d 3 00 00 00
 1.316315 1  361             Rx   d 8 3A 64 13 42 FF FB 01 21
 1.316513 1  362             Rx   d 8 00 00 00 00 00 00 02 06
 1.322992 1  221             Rx   d 8 00 00 00 00 00 00 00 00
 1.323191 1  281             Rx   d 8 00 00 00 00 00 00 00 00
 1.323407 1  271             Rx   d 8 00 00 00 00 00 00 00 00
 1.323672 1  241             Rx   d 8 00 7E 7E 7E 7E 7E 00 B9
 1.323906 1  251             Rx   d 8 00 00 00 00 FF FF D4 22
 1.324165 1  252             Rx   d 8 00 00 00 01 FF FF D4 14
 1.324378 1  253             Rx   d 8 00 00 00 04 00 00 2C 82
 1.324624 1  263             Rx   d 8 01 F0 00 2A 1C 40 00 00
 1.324882 1  254             Rx   d 8 00 00 00 00 00 00 2B CF
 1.325114 1  255             Rx   d 8 00 00 00 00 00 00 00 00
 1.325372 1  256             Rx   d 8 00 00 00 00 00 00 00 00
 1.325624 1  257             Rx   d 8 00 00 00 00 00 00 00 00
 1.325882 1  258             Rx   d 8 00 00 00 00 00 00 00 00
 1.326115 1  268             Rx   d 8 01 ED 00 2B 1F 40 00 00
 1.326372 1  231             Rx   d 8 00 00 00 00 00 00 00 B9
 1.326598 1  311             Rx   d 8 FF FF FE B6 FF FF FE B5
 1.326832 1  312             Rx   d 8 FF FF FE B0 FF FF FE B5
 1.327078 1  211             Rx   d 8 00 01 01 F2 00 00 00 00
 1.327242 1  291             Rx   d 3 00 00 00
 1.343968 1  221             Rx   d 8 00 00 00 00 00 00 00 00
 1.344192 1  281             Rx   d 8 00 00 00 00 00 00 00 00
 1.344483 1  271             Rx   d 8 00 00 00 00 00 00 00 00
 1.344668 1  241             Rx   d 8 00 7E 7E 7E 7E 7E 00 BA
 1.344930 1  251             Rx   d 8 00 00 00 00 FF FF D4 22
 1.345162 1  252             Rx   d 8 00 00 00 01 FF FF D4 14
 1.345411 1  253             Rx   d 8 00 00 00 00 00 00 2C 82
 1.345643 1  254             Rx   d 8 00 00 00 00 00 00 2B CF
 1.345904 1  255             Rx   d 8 00 00 00 00 00 00 00 00
 1.346163 1  265             Rx   d 8 01 EB 00 2B 1F 40 00 00
 1.346388 1  256             Rx   d 8 00 00 00 00 00 00 00 00
 1.346647 1  257             Rx   d 8 00 00 00 00 00 00 00 00
 1.346903 1  258             Rx   d 8 00 00 00 00 00 00 00 00
 1.347136 1  231             Rx   d 8 00 00 00 00 00 00 00 BA
 1.347383 1  311             Rx   d 8 FF FF FE B6 FF FF FE B5
 1.347621 1  312             Rx   d 8 FF FF FE B0 FF FF FE B5
 1.347852 1  211             Rx   d 8 00 01 01 F2 00 00 00 00
 1.348032 1  291             Rx   d 3 00 00 00
 1.364986 1  221             Rx   d 8 00 00 00 00 00 00 00 00
 1.365192 1  281             Rx   d 8 00 00 00 00 00 00 00 00
 1.365484 1  271             Rx   d 8 00 00 00 00 00 00 00 00
 1.365671 1  241             Rx   d 8 00 7E 7E 7E 7E 7E 00 BB
 1.365930 1  251             Rx   d 8 00 00 00 00 FF FF D4 22
 1.366160 1  252             Rx   d 8 00 00 00 01 FF FF D4 13
 1.366389 1  262             Rx   d 8 01 EF 00 2A 1D 40 00 00
 1.366671 1  253             Rx   d 8 00 00 00 01 00 00 2C 82
 1.366907 1  254             Rx   d 8 00 00 00 00 00 00 2B CF
 1.367136 1  255             Rx   d 8 00 00 00 00 00 00 00 00
 1.367379 1  256             Rx   d 8 00 00 00 00 00 00 00 00
 1.367643 1  257             Rx   d 8 00 00 00 00 00 00 00 00
 1.367859 1  267             Rx   d 8 01 E9 00 2B 1F 40 00 00
 1.368135 1  258             Rx   d 8 00 00 00 00 00 00 00 00
 1.368373 1  231             Rx   d 8 00 00 00 00 00 00 00 BB
 1.368598 1  311             Rx   d 8 FF FF FE B6 FF FF FE B5
 1.368832 1  312             Rx   d 8 FF FF FE B0 FF FF FE B5
 1.369095 1  211             Rx   d 8 00 01 01 F2 00 00 00 00
 1.369244 1  291             Rx   d 3 00 00 00
 1.385960 1  221             Rx   d 8 00 00 00 00 00 00 00 00
 1.386172 1  281             Rx   d 8 00 00 00 00 00 00 00 00
 1.386482 1  271             Rx   d 8 00 00 00 00 00 00 00 00
 1.386677 1  241             Rx   d 8 00 7E 7E 7E 7E 7E 00 BC
 1.386910 1  251             Rx   d 8 00 00 00 00 FF FF D4 22
 1.387144 1  252             Rx   d 8 00 00 00 00 FF FF D4 13
 1.387392 1  253             Rx   d 8 00 00 00 02 00 00 2C 82
 1.387625 1  254             Rx   d 8 00 00 00 00 00 00 2B CF
 1.387902 1  264             Rx   d 8 01 E8 00 2A 1D 40 00 00
 1.388116 1  255             Rx   d 8 00 00 00 00 00 00 00 00
 1.388374 1  256             Rx   d 8 00 00 00 00 00 00 00 00
 1.388643 1  257             Rx   d 8 00 00 00 00 00 00 00 00
 1.388901 1  258             Rx   d 8 00 00 00 00 00 00 00 00
 1.389135 1  231             Rx   d 8 00 00 00 00 00 00 00 BC
 1.389385 1  311             Rx   d 8 FF FF FE B6 FF FF FE B5
 1.389618 1  312             Rx   d 8 FF FF FE B0 FF FF FE B5
 1.389836 1  211             Rx   d 8 00 01 01 F2 00 00 00 00
 1.390032 1  291             Rx   d 3 00 00 00
 1.406957 1  221             Rx   d 8 00 00 00 00 00 00 00 00
 1.407188 1  281             Rx   d 8 00 00 00 00 00 00 00 00
 1.407404 1  271             Rx   d 8 00 00 00 00 00 00 00 00
 1.407671 1  241             Rx   d 8 00 7E 7E 7E 7E 7E 00 BD
 1.407934 1  251             Rx   d 8 00 00 00 00 FF FF D4 22
 1.408167 1  261             Rx   d 8 01 EA 00 2A 1F 40 00 00
 1.408392 1  252             Rx   d 8 00 00 00 01 FF FF D4 13
 1.408645 1  253             Rx   d 8 00 00 00 02 00 00 2C 82
 1.408901 1  254             Rx   d 8 00 00 00 00 00 00 2B CF
 1.409136 1  255             Rx   d 8 00 00 00 00 00 00 00 00
 1.409387 1  256             Rx   d 8 00 00 00 00 00 00 00 00
 1.409643 1  266             Rx   d 8 01 E9 00 2C 20 40 00 00
 1.409903 1  257             Rx   d 8 00 00 00 00 00 00 00 00
 1.410136 1  258             Rx   d 8 00 00 00 00 00 00 00 00
 1.410369 1  231             Rx   d 8 00 00 00 00 00 00 00 BD
 1.410619 1  311             Rx   d 8 FF FF FE B6 FF FF FE B5
 1.410834 1  312             Rx   d 8 FF FF FE B0 FF FF FE B5
 1.411109 1  211             Rx   d 8 00 01 01 F2 00 00 00 00
 1.411247 1  291             Rx   d 3 00 00 00
 1.427968 1  221             Rx   d 8 00 00 00 00 00 00 00 00
 1.428213 1  281             Rx   d 8 00 00 00 00 00 00 00 00
 1.428507 1  271             Rx   d 8 00 00 00 00 00 00 00 00
 1.428726 1  241             Rx   d 8 00 7E 7E 7E 7E 7E 00 BE
 1.428931 1  251             Rx   d 8 00 00 00 00 FF FF D4 22
 1.429188 1  252             Rx   d 8 00 00 00 01 FF FF D4 13
 1.429406 1  253             Rx   d 8 00 00 00 01 00 00 2C 82
 1.429648 1  263             Rx   d 8 01 F0 00 2A 1C 40 00 00
 1.429912 1  254             Rx   d 8 00 00 00 00 00 00 2B CF
 1.430154 1  255             Rx   d 8 00 00 00 00 00 00 00 00
 1.430428 1  256             Rx   d 8 00 00 00 00 00 00 00 00
 1.430659 1  257             Rx   d 8 00 00 00 00 00 00 00 00
 1.430908 1  258             Rx   d 8 00 00 00 00 00 00 00 00
 1.431165 1  268             Rx   d 8 01 ED 00 2B 1F 40 00 00
 1.431392 1  231             Rx   d 8 00 00 00 00 00 00 00 BE
 1.431646 1  311             Rx   d 8 FF FF FE B6 FF FF FE B5
 1.431882 1  312             Rx   d 8 FF FF FE B0 FF FF FE B5
 1.432108 1  211             Rx   d 8 00 01 01 F2 00 00 00 00
 1.432283 1  291             Rx   d 3 00 00 00
 1.448983 1  221             Rx   d 8 00 00 00 00 00 00 00 00
 1.449190 1  281             Rx   d 8 00 00 00 00 00 00 00 00
 1.449484 1  271             Rx   d 8 00 00 00 00 00 00 00 00
 1.449671 1  241             Rx   d 8 00 7E 7E 7E 7E 7E 00 BF
 1.449929 1  251             Rx   d 8 00 00 00 00 FF FF D4 22
 1.450162 1  252             Rx   d 8 00 00 00 00 FF FF D4 13
 1.450404 1  253             Rx   d 8 00 00 00 01 00 00 2C 82
 1.450670 1  254             Rx   d 8 00 00 00 00 00 00 2B CF
 1.450888 1  255             Rx   d 8 00 00 00 00 00 00 00 00
 1.451146 1  265             Rx   d 8 01 EB 00 2B 1F 40 00 00
 1.451376 1  256             Rx   d 8 00 00 00 00 00 00 00 00
 1.451624 1  257             Rx   d 8 00 00 00 00 00 00 00 00
 1.451883 1  258             Rx   d 8 00 00 00 00 00 00 00 00
 1.452116 1  231             Rx   d 8 00 00 00 00 00 00 00 BF
 1.452373 1  311             Rx   d 8 FF FF FE B6 FF FF FE B5
 1.452598 1  312             Rx   d 8 FF FF FE B0 FF FF FE B5
 1.452856 1  211             Rx   d 8 00 01 01 F2 00 00 00 00
 1.453011 1  291             Rx   d 3 00 00 00
 1.469985 1  221             Rx   d 8 00 00 00 00 00 00 00 00
 1.470290 1  281             Rx   d 8 00 00 00 00 00 00 00 00
 1.470573 1  271             Rx   d 8 00 00 00 00 00 00 00 00
 1.470786 1  241             Rx   d 8 00 7E 7E 7E 7E 7E 00 C0
 1.470958 1  251             Rx   d 8 00 00 00 00 FF FF D4 22
 1.471273 1  252             Rx   d 8 00 00 00 00 FF FF D4 14
 1.471525 1  262             Rx   d 8 01 EF 00 2A 1D 40 00 00
 1.471644 1  253             Rx   d 8 00 00 00 02 00 00 2C 82
 1.471904 1  254             Rx   d 8 00 00 00 00 00 00 2B CF
 1.472164 1  255             Rx   d 8 00 00 00 00 00 00 00 00
 1.472391 1  256             Rx   d 8 00 00 00 00 00 00 00 00
 1.472644 1  257             Rx   d 8 00 00 00 00 00 00 00 00
 1.472878 1  267             Rx   d 8 01 E9 00 2B 1F 40 00 00
 1.473135 1  258             Rx   d 8 00 00 00 00 00 00 00 00
 1.473389 1  231             Rx   d 8 00 00 00 00 00 00 00 C0
 1.473619 1  311             Rx   d 8 FF FF FE B6 FF FF FE B5
 1.473860 1  312             Rx   d 8 FF FF FE B0 FF FF FE B5
 1.474098 1  211             Rx   d 8 00 01 01 F2 00 00 00 00
 1.474247 1  291             Rx   d 3 00 00 00
 1.490995 1  221             Rx   d 8 00 00 00 00 00 00 00 00
 1.491190 1  281             Rx   d 8 00 00 00 00 00 00 00 00
 1.491483 1  271             Rx   d 8 00 00 00 00 00 00 00 00
 1.491696 1  241             Rx   d 8 00 7E 7E 7E 7E 7E 00 C1
 1.491956 1  251             Rx   d 8 00 00 00 00 FF FF D4 22
 1.492186 1  252             Rx   d 8 00 00 00 01 FF FF D4 13
 1.492415 1  253             Rx   d 8 00 00 00 01 00 00 2C 82
 1.492671 1  254             Rx   d 8 00 00 00 00 00 00 2B CF
 1.492908 1  264             Rx   d 8 01 E8 00 2A 1D 40 00 00
 1.493163 1  255             Rx   d 8 00 00 00 00 00 00 00 00
 1.493409 1  256             Rx   d 8 00 00 00 00 00 00 00 00
 1.493671 1  257             Rx   d 8 00 00 00 00 00 00 00 00
 1.493933 1  258             Rx   d 8 00 00 00 00 00 00 00 00
 1.494164 1  231             Rx   d 8 00 00 00 00 00 00 00 C1
 1.494393 1  311             Rx   d 8 FF FF FE B6 FF FF FE B5
 1.494672 1  312             Rx   d 8 FF FF FE B0 FF FF FE B5
 1.494875 1  211             Rx   d 8 00 01 01 F2 00 00 00 00
 1.495030 1  291             Rx   d 3 00 00 00
 1.512022 1  221             Rx   d 8 00 00 00 00 00 00 00 00
 1.512218 1  281             Rx   d 8 00 00 00 00 00 00 00 00
 1.512484 1  271             Rx   d 8 00 00 00 00 00 00 00 00
 1.512694 1  241             Rx   d 8 00 7E 7E 7E 7E 7E 00 C2
 1.512956 1  251             Rx   d 8 00 00 00 00 FF FF D4 22
 1.513188 1  261             Rx   d 8 01 EA 00 2A 1F 40 00 00
 1.513411 1  252             Rx   d 8 00 00 00 01 FF FF D4 14
 1.513669 1  253             Rx   d 8 00 00 00 02 00 00 2C 82
 1.513933 1  254             Rx   d 8 00 00 00 00 00 00 2B CF
 1.514166 1  255             Rx   d 8 00 00 00 00 00 00 00 00
 1.514410 1  256             Rx   d 8 00 00 00 00 00 00 00 00
 1.514671 1  266             Rx   d 8 01 E9 00 2C 20 40 00 00
 1.514907 1  257             Rx   d 8 00 00 00 00 00 00 00 00
 1.515164 1  258             Rx   d 8 00 00 00 00 00 00 00 00
 1.515391 1  231             Rx   d 8 00 00 00 00 00 00 00 C2
 1.515643 1  311             Rx   d 8 FF FF FE B6 FF FF FE B5
 1.515881 1  312             Rx   d 8 FF FF FE B0 FF FF FE B5
 1.516140 1  211             Rx   d 8 00 01 01 F2 00 00 00 00
 1.516294 1  291             Rx   d 3 00 00 00
 1.516753 1  361             Rx   d 8 3A 64 13 42 FF FB 01 21
 1.516992 1  362             Rx   d 8 00 00 00 00 00 00 02 06
 1.532932 1  221             Rx   d 8 00 00 00 00 00 00 00 00
 1.533189 1  281             Rx   d 8 00 00 00 00 00 00 00 00
 1.533480 1  271             Rx   d 8 00 00 00 00 00 00 00 00
 1.533696 1  241             Rx   d 8 00 7E 7E 7E 7E 7E 00 C3
 1.533930 1  251             Rx   d 8 00 00 00 00 FF FF D4 22
 1.534188 1  252             Rx   d 8 00 00 00 01 FF FF D4 14
 1.534407 1  253             Rx   d 8 00 00 00 02 00 00 2C 82
 1.534645 1  263             Rx   d 8 01 F0 00 2A 1C 40 00 00
 1.534907 1  254             Rx   d 8 00 00 00 00 00 00 2B CF
 1.535120 1  255             Rx   d 8 00 00 00 00 00 00 00 00
 1.535393 1  256             Rx   d 8 00 00 00 00 00 00 00 00
 1.535649 1  257             Rx   d 8 00 00 00 00 00 00 00 00
 1.535884 1  258             Rx   d 8 00 00 00 00 00 00 00 00
 1.536144 1  268             Rx   d 8 01 ED 00 2B 1F 40 00 00
 1.536393 1  231             Rx   d 8 00 00 00 00 00 00 00 C3
 1.536645 1  311             Rx   d 8 FF FF FE B6 FF FF FE B5
 1.536880 1  312             Rx   d 8 FF FF FE B0 FF FF FE B5
 1.537099 1  211             Rx   d 8 00 01 01 F2 00 00 00 00
 1.537246 1  291             Rx   d 3 00 00 00
 1.553991 1  221             Rx   d 8 00 00 00 00 00 00 00 00
 1.554187 1  281             Rx   d 8 00 00 00 00 00 00 00 00
 1.554461 1  271             Rx   d 8 00 00 00 00 00 00 00 00
 1.554646 1  241             Rx   d 8 00 7E 7E 7E 7E 7E 00 C4
 1.554881 1  251             Rx   d 8 00 00 00 00 FF FF D4 22
 1.555137 1  252             Rx   d 8 00 00 00 01 FF FF D4 13
 1.555388 1  253             Rx   d 8 00 00 00 02 00 00 2C 82
 1.555620 1  254             Rx   d 8 00 00 00 03 00 00 2B CF
 1.555880 1  255             Rx   d 8 00 00 00 00 00 00 00 00
 1.556134 1  265             Rx   d 8 01 EB 00 2B 1F 40 00 00
 1.556374 1  256             Rx   d 8 00 00 00 00 00 00 00 00
 1.556621 1  257             Rx   d 8 00 00 00 00 00 00 00 00
 1.556883 1  258             Rx   d 8 00 00 00 00 00 00 00 00
 1.557115 1  231             Rx   d 8 00 00 00 00 00 00 00 C4
 1.557348 1  311             Rx   d 8 FF FF FE B6 FF FF FE B5
 1.557595 1  312             Rx   d 8 FF FF FE B0 FF FF FE B5
 1.557833 1  211             Rx   d 8 00 01 01 F2 00 00 00 00
 1.557985 1  291             Rx   d 3 00 00 00
 1.575013 1  221             Rx   d 8 00 00 00 00 00 00 00 00
 1.575196 1  281             Rx   d 8 00 00 00 00 00 00 00 00
 1.575485 1  271             Rx   d 8 00 00 00 00 00 00 00 00
 1.575696 1  241             Rx   d 8 00 7E 7E 7E 7E 7E 00 C5
 1.575951 1  251             Rx   d 8 00 00 00 00 FF FF D4 22
 1.576190 1  252             Rx   d 8 00 00 00 00 FF FF D4 14
 1.576406 1  262             Rx   d 8 01 EF 00 2A 1D 40 00 00
 1.576650 1  253             Rx   d 8 00 00 00 01 00 00 2C 82
 1.576908 1  254             Rx   d 8 00 00 00 01 00 00 2B CF
 1.577141 1  255             Rx   d 8 00 00 00 00 00 00 00 00
 1.577394 1  256             Rx   d 8 00 00 00 00 00 00 00 00
 1.577664 1  257             Rx   d 8 00 00 00 00 00 00 00 00
 1.577880 1  267             Rx   d 8 01 E9 00 2B 1F 40 00 00
 1.578137 1  258             Rx   d 8 00 00 00 00 00 00 00 00
 1.578373 1  231             Rx   d 8 00 00 00 00 00 00 00 C5
 1.578619 1  311             Rx   d 8 FF FF FE B6 FF FF FE B5
 1.578858 1  312             Rx   d 8 FF FF FE B0 FF FF FE B5
 1.579085 1  211             Rx   d 8 00 01 01 F2 00 00 00 00
 1.579268 1  291             Rx   d 3 00 00 00
 1.595960 1  221             Rx   d 8 00 00 00 00 00 00 00 00
 1.596188 1  281             Rx   d 8 00 00 00 00 00 00 00 00
 1.596462 1  271             Rx   d 8 00 00 00 00 00 00 00 00
 1.596695 1  241             Rx   d 8 00 7E 7E 7E 7E 7E 00 C6
 1.596909 1  251             Rx   d 8 00 00 00 00 FF FF D4 22
 1.597186 1  252             Rx   d 8 00 00 00 00 FF FF D4 14
 1.597405 1  253             Rx   d 8 00 00 00 01 00 00 2C 82
 1.597670 1  254             Rx   d 8 00 00 00 02 00 00 2B CF
 1.597906 1  264             Rx   d 8 01 E9 00 2A 1D 40 00 00
 1.598164 1  255             Rx   d 8 00 00 00 00 00 00 00 00
 1.598407 1  256             Rx   d 8 00 00 00 00 00 00 00 00
 1.598625 1  257             Rx   d 8 00 00 00 00 00 00 00 00
 1.598882 1  258             Rx   d 8 00 00 00 00 00 00 00 00
 1.599139 1  231             Rx   d 8 00 00 00 00 00 00 00 C6
 1.599386 1  311             Rx   d 8 FF FF FE B6 FF FF FE B5
 1.599624 1  312             Rx   d 8 FF FF FE B0 FF FF FE B5
 1.599857 1  211             Rx   d 8 00 01 01 F2 00 00 00 00
 1.600008 1  291             Rx   d 3 00 00 00
 1.617014 1  221             Rx   d 8 00 00 00 00 00 00 00 00
 1.617190 1  281             Rx   d 8 00 00 00 00 00 00 00 00
 1.617481 1  271             Rx   d 8 00 00 00 00 00 00 00 00
 1.617647 1  241             Rx   d 8 00 7E 7E 7E 7E 7E 00 C7
 1.617926 1  251             Rx   d 8 00 00 00 00 FF FF D4 22
 1.618141 1  261             Rx   d 8 01 EA 00 2A 1F 40 00 00
 1.618390 1  252             Rx   d 8 00 00 00 01 FF FF D4 13
 1.618621 1  253             Rx   d 8 00 00 00 01 00 00 2C 82
 1.618883 1  254             Rx   d 8 00 00 00 00 00 00 2B CF
 1.619114 1  255             Rx   d 8 00 00 00 00 00 00 00 00
 1.619373 1  256             Rx   d 8 00 00 00 00 00 00 00 00
 1.619621 1  266             Rx   d 8 01 E9 00 2C 20 40 00 00
 1.619881 1  257             Rx   d 8 00 00 00 00 00 00 00 00
 1.620134 1  258             Rx   d 8 00 00 00 00 00 00 00 00
 1.620374 1  231             Rx   d 8 00 00 00 00 00 00 00 C7
 1.620596 1  311             Rx   d 8 FF FF FE B6 FF FF FE B5
 1.620877 1  312             Rx   d 8 FF FF FE B0 FF FF FE B5
 1.621148 1  211             Rx   d 8 00 01 01 F2 00 00 00 00
 1.621265 1  291             Rx   d 3 00 00 00
 1.638032 1  221             Rx   d 8 00 00 00 00 00 00 00 00
 1.638188 1  281             Rx   d 8 00 00 00 00 00 00 00 00
 1.638474 1  271             Rx   d 8 00 00 00 00 00 00 00 00
 1.638695 1  241             Rx   d 8 00 7E 7E 7E 7E 7E 00 C8
 1.638911 1  251             Rx   d 8 00 00 00 00 FF FF D4 22
 1.639161 1  252             Rx   d 8 00 00 00 01 FF FF D4 13
 1.639406 1  253             Rx   d 8 00 00 00 02 00 00 2C 82
 1.639644 1  263             Rx   d 8 01 F0 00 2A 1C 40 00 00
 1.639884 1  254             Rx   d 8 00 00 00 03 00 00 2B CF
 1.640135 1  255             Rx   d 8 00 00 00 00 00 00 00 00
 1.640387 1  256             Rx   d 8 00 00 00 00 00 00 00 00
 1.640646 1  257             Rx   d 8 00 00 00 00 00 00 00 00
 1.640881 1  258             Rx   d 8 00 00 00 00 00 00 00 00
 1.641138 1  268             Rx   d 8 01 ED 00 2B 1F 40 00 00
 1.641371 1  231             Rx   d 8 00 00 00 00 00 00 00 C8
 1.641620 1  311             Rx   d 8 FF FF FE B6 FF FF FE B5
 1.641855 1  312             Rx   d 8 FF FF FE B0 FF FF FE B5
 1.642086 1  211             Rx   d 8 00 01 01 F2 00 00 00 00
 1.642267 1  291             Rx   d 3 00 00 00
 1.659026 1  221             Rx   d 8 00 00 00 00 00 00 00 00
 1.659192 1  281             Rx   d 8 00 00 00 00 00 00 00 00
 1.659482 1  271             Rx   d 8 00 00 00 00 00 00 00 00
 1.659694 1  241             Rx   d 8 00 7E 7E 7E 7E 7E 00 C9
 1.659929 1  251             Rx   d 8 00 00 00 00 FF FF D4 22
 1.660162 1  252             Rx   d 8 00 00 00 01 FF FF D4 14
 1.660406 1  253             Rx   d 8 00 00 00 01 00 00 2C 82
 1.660671 1  254             Rx   d 8 00 00 00 01 00 00 2B CF
 1.660903 1  255             Rx   d 8 00 00 00 00 00 00 00 00
 1.661162 1  265             Rx   d 8 01 EB 00 2B 1F 40 00 00
 1.661387 1  256             Rx   d 8 00 00 00 00 00 00 00 00
 1.661645 1  257             Rx   d 8 00 00 00 00 00 00 00 00
 1.661903 1  258             Rx   d 8 00 00 00 00 00 00 00 00
 1.662137 1  231             Rx   d 8 00 00 00 00 00 00 00 C9
 1.662370 1  311             Rx   d 8 FF FF FE B6 FF FF FE B5
 1.662618 1  312             Rx   d 8 FF FF FE B0 FF FF FE B5
 1.662851 1  211             Rx   d 8 00 01 01 F2 00 00 00 00
 1.663009 1  291             Rx   d 3 00 00 00
 1.680009 1  221             Rx   d 8 00 00 00 00 00 00 00 00
 1.680193 1  281             Rx   d 8 00 00 00 00 00 00 00 00
 1.680484 1  271             Rx   d 8 00 00 00 00 00 00 00 00
 1.680671 1  241             Rx   d 8 00 7E 7E 7E 7E 7E 00 CA
 1.680928 1  251             Rx   d 8 00 00 00 00 FF FF D4 22
 1.681207 1  252             Rx   d 8 00 00 00 01 FF FF D4 13
 1.681389 1  262             Rx   d 8 01 EF 00 2A 1D 40 00 00
 1.681674 1  253             Rx   d 8 00 00 00 00 00 00 2C 82
 1.681907 1  254             Rx   d 8 00 00 00 02 00 00 2B CF
 1.682138 1  255             Rx   d 8 00 00 00 00 00 00 00 00
 1.682389 1  256             Rx   d 8 00 00 00 00 00 00 00 00
 1.682644 1  257             Rx   d 8 00 00 00 00 00 00 00 00
 1.682876 1  267             Rx   d 8 01 E9 00 2B 1F 40 00 00
 1.683132 1  258             Rx   d 8 00 00 00 00 00 00 00 00
 1.683388 1  231             Rx   d 8 00 00 00 00 00 00 00 CA
 1.683618 1  311             Rx   d 8 FF FF FE B6 FF FF FE B5
 1.683880 1  312             Rx   d 8 FF FF FE B0 FF FF FE B5
 1.684121 1  211             Rx   d 8 00 01 01 F2 00 00 00 00
 1.684266 1  291             Rx   d 3 00 00 00
 1.700995 1  221             Rx   d 8 00 00 00 00 00 00 00 00
 1.701186 1  281             Rx   d 8 00 00 00 00 00 00 00 00
 1.701481 1  271             Rx   d 8 00 00 00 00 00 00 00 00
 1.701675 1  241             Rx   d 8 00 7E 7E 7E 7E 7E 00 CB
 1.701906 1  251             Rx   d 8 00 00 00 00 FF FF D4 22
 1.702167 1  252             Rx   d 8 00 00 00 00 FF FF D4 13
 1.702395 1  253             Rx   d 8 00 00 00 00 00 00 2C 82
 1.702642 1  254             Rx   d 8 00 00 00 02 00 00 2B CF
 1.702898 1  264             Rx   d 8 01 E8 00 2A 1D 40 00 00
 1.703133 1  255             Rx   d 8 00 00 00 00 00 00 00 00
 1.703371 1  256             Rx   d 8 00 00 00 00 00 00 00 00
 1.703649 1  257             Rx   d 8 00 00 00 00 00 00 00 00
 1.703879 1  258             Rx   d 8 00 00 00 00 00 00 00 00
 1.704133 1  231             Rx   d 8 00 00 00 00 00 00 00 CB
 1.704373 1  311             Rx   d 8 FF FF FE B6 FF FF FE B5
 1.704596 1  312             Rx   d 8 FF FF FE B0 FF FF FE B5
 1.704826 1  211             Rx   d 8 00 01 01 F2 00 00 00 00
 1.705010 1  291             Rx   d 3 00 00 00
 1.717360 1  361             Rx   d 8 3A 64 13 42 FF FB 01 21
 1.717539 1  362             Rx   d 8 00 00 00 00 00 00 02 06
 1.721963 1  221             Rx   d 8 00 00 00 00 00 00 00 00
 1.722191 1  281             Rx   d 8 00 00 00 00 00 00 00 00
 1.722505 1  271             Rx   d 8 00 00 00 00 00 00 00 00
 1.722696 1  241             Rx   d 8 00 7E 7E 7E 7E 7E 00 CC
 1.722932 1  251             Rx   d 8 00 00 00 00 FF FF D4 22
 1.723187 1  261             Rx   d 8 01 EA 00 2A 1F 40 00 00
 1.723422 1  252             Rx   d 8 00 00 00 00 FF FF D4 14
 1.723672 1  253             Rx   d 8 00 00 00 00 00 00 2C 82
 1.723903 1  254             Rx   d 8 00 00 00 02 00 00 2B CF
 1.724162 1  255             Rx   d 8 00 00 00 00 00 00 00 00
 1.724388 1  256             Rx   d 8 00 00 00 00 00 00 00 00
 1.724648 1  266             Rx   d 8 01 E9 00 2C 20 40 00 00
 1.724907 1  257             Rx   d 8 00 00 00 00 00 00 00 00
 1.725139 1  258             Rx   d 8 00 00 00 00 00 00 00 00
 1.725388 1  231             Rx   d 8 00 00 00 00 00 00 00 CC
 1.725618 1  311             Rx   d 8 FF FF FE B6 FF FF FE B5
 1.725878 1  312             Rx   d 8 FF FF FE B0 FF FF FE B5
 1.726098 1  211             Rx   d 8 00 01 01 F2 00 00 00 00
 1.726266 1  291             Rx   d 3 00 00 00
 1.742963 1  221             Rx   d 8 00 00 00 00 00 00 00 00
 1.743190 1  281             Rx   d 8 00 00 00 00 00 00 00 00
 1.743423 1  271             Rx   d 8 00 00 00 00 00 00 00 00
 1.743694 1  241             Rx   d 8 00 7E 7E 7E 7E 7E 00 CD
 1.743954 1  251             Rx   d 8 00 00 00 00 FF FF D4 22
 1.744170 1  252             Rx   d 8 00 00 00 01 FF FF D4 13
 1.744408 1  253             Rx   d 8 00 00 00 00 00 00 2C 82
 1.744671 1  263             Rx   d 8 01 F0 00 2A 1C 40 00 00
 1.744903 1  254             Rx   d 8 00 00 00 01 00 00 2B CF
 1.745137 1  255             Rx   d 8 00 00 00 00 00 00 00 00
 1.745387 1  256             Rx   d 8 00 00 00 00 00 00 00 00
 1.745666 1  257             Rx   d 8 00 00 00 00 00 00 00 00
 1.745926 1  258             Rx   d 8 00 00 00 00 00 00 00 00
 1.746136 1  268             Rx   d 8 01 ED 00 2B 1F 40 00 00
 1.746390 1  231             Rx   d 8 00 00 00 00 00 00 00 CD
 1.746619 1  311             Rx   d 8 FF FF FE B6 FF FF FE B5
 1.746854 1  312             Rx   d 8 FF FF FE B0 FF FF FE B5
 1.747087 1  211             Rx   d 8 00 01 01 F2 00 00 00 00
 1.747265 1  291             Rx   d 3 00 00 00
 1.763968 1  221             Rx   d 8 00 00 00 00 00 00 00 00
 1.764192 1  281             Rx   d 8 00 00 00 00 00 00 00 00
 1.764484 1  271             Rx   d 8 00 00 00 00 00 00 00 00
 1.764692 1  241             Rx   d 8 00 7E 7E 7E 7E 7E 00 CE
 1.764930 1  251             Rx   d 8 00 00 00 00 FF FF D4 22
 1.765163 1  252             Rx   d 8 00 00 00 00 FF FF D4 13
 1.765405 1  253             Rx   d 8 00 00 00 00 00 00 2C 82
 1.765644 1  254             Rx   d 8 00 00 00 02 00 00 2B CF
 1.765902 1  255             Rx   d 8 00 00 00 00 00 00 00 00
 1.766135 1  265             Rx   d 8 01 EB 00 2B 1F 40 00 00
 1.766384 1  256             Rx   d 8 00 00 00 00 00 00 00 00
 1.766643 1  257             Rx   d 8 00 00 00 00 00 00 00 00
 1.766901 1  258             Rx   d 8 00 00 00 00 00 00 00 00
 1.767136 1  231             Rx   d 8 00 00 00 00 00 00 00 CE
 1.767363 1  311             Rx   d 8 FF FF FE B6 FF FF FE B5
 1.767600 1  312             Rx   d 8 FF FF FE B0 FF FF FE B5
 1.767862 1  211             Rx   d 8 00 01 01 F2 00 00 00 00
 1.768008 1  291             Rx   d 3 00 00 00
 1.784960 1  221             Rx   d 8 00 00 00 00 00 00 00 00
 1.785327 1  281             Rx   d 8 00 00 00 00 00 00 00 00
 1.785483 1  271             Rx   d 8 00 00 00 00 00 00 00 00
 1.785694 1  241             Rx   d 8 00 7E 7E 7E 7E 7E 00 CF
 1.786031 1  251             Rx   d 8 00 00 00 00 FF FF D4 22
 1.786286 1  252             Rx   d 8 00 00 00 00 FF FF D4 14
 1.786505 1  262             Rx   d 8 01 EE 00 2A 1D 40 00 00
 1.786643 1  253             Rx   d 8 00 00 00 00 00 00 2C 82
 1.786885 1  254             Rx   d 8 00 00 00 02 00 00 2B CF
 1.787117 1  255             Rx   d 8 00 00 00 00 00 00 00 00
 1.787375 1  256             Rx   d 8 00 00 00 00 00 00 00 00
 1.787622 1  257             Rx   d 8 00 00 00 00 00 00 00 00
 1.787853 1  267             Rx   d 8 01 E9 00 2B 1F 40 00 00
 1.788115 1  258             Rx   d 8 00 00 00 00 00 00 00 00
 1.788346 1  231             Rx   d 8 00 00 00 00 00 00 00 CF
 1.788595 1  311             Rx   d 8 FF FF FE B6 FF FF FE B5
 1.788831 1  312             Rx   d 8 FF FF FE B0 FF FF FE B5
 1.789093 1  211             Rx   d 8 00 01 01 F2 00 00 00 00
 1.789244 1  291             Rx   d 3 00 00 00
 1.805971 1  221             Rx   d 8 00 00 00 00 00 00 00 00
 1.806269 1  281             Rx   d 8 00 00 00 00 00 00 00 00
 1.806527 1  271             Rx   d 8 00 00 00 00 00 00 00 00
 1.806697 1  241             Rx   d 8 00 7E 7E 7E 7E 7E 00 D0
 1.806928 1  251             Rx   d 8 00 00 00 00 FF FF D4 22
 1.807186 1  252             Rx   d 8 00 00 00 01 FF FF D4 13
 1.807404 1  253             Rx   d 8 00 00 00 00 00 00 2C 82
 1.807678 1  254             Rx   d 8 00 00 00 03 00 00 2B CF
 1.807902 1  264             Rx   d 8 01 E8 00 2A 1D 40 00 00
 1.808156 1  255             Rx   d 8 00 00 00 00 00 00 00 00
 1.808403 1  256             Rx   d 8 00 00 00 00 00 00 00 00
 1.808644 1  257             Rx   d 8 00 00 00 00 00 00 00 00
 1.808902 1  258             Rx   d 8 00 00 00 00 00 00 00 00
 1.809134 1  231             Rx   d 8 00 00 00 00 00 00 00 D0
 1.809370 1  311             Rx   d 8 FF FF FE B6 FF FF FE B5
 1.809618 1  312             Rx   d 8 FF FF FE B0 FF FF FE B5
 1.809837 1  211             Rx   d 8 00 01 01 F2 00 00 00 00
 1.810031 1  291             Rx   d 3 00 00 00
 1.826930 1  221             Rx   d 8 00 00 00 00 00 00 00 00
 1.827167 1  281             Rx   d 8 00 00 00 00 00 00 00 00
 1.827457 1  271             Rx   d 8 00 00 00 00 00 00 00 00
 1.827671 1  241             Rx   d 8 00 7E 7E 7E 7E 7E 00 D1
 1.827904 1  251             Rx   d 8 00 00 00 00 FF FF D4 22
 1.828162 1  261             Rx   d 8 01 EA 00 2A 1F 40 00 00
 1.828386 1  252             Rx   d 8 00 00 00 00 FF FF D4 14
 1.828619 1  253             Rx   d 8 00 00 00 00 00 00 2C 82
 1.828877 1  254             Rx   d 8 00 00 00 00 00 00 2B CF
 1.829139 1  255             Rx   d 8 00 00 00 00 00 00 00 00
 1.829384 1  256             Rx   d 8 00 00 00 00 00 00 00 00
 1.829619 1  266             Rx   d 8 01 E9 00 2C 20 40 00 00
 1.829882 1  257             Rx   d 8 00 00 00 00 00 00 00 00
 1.830137 1  258             Rx   d 8 00 00 00 00 00 00 00 00
 1.830372 1  231             Rx   d 8 00 00 00 00 00 00 00 D1
 1.830594 1  311             Rx   d 8 FF FF FE B6 FF FF FE B5
 1.830874 1  312             Rx   d 8 FF FF FE B0 FF FF FE B5
 1.831076 1  211             Rx   d 8 00 01 01 F2 00 00 00 00
 1.831242 1  291             Rx   d 3 00 00 00
 1.847960 1  221             Rx   d 8 00 00 00 00 00 00 00 00
 1.848210 1  281             Rx   d 8 00 00 00 00 00 00 00 00
 1.848504 1  271             Rx   d 8 00 00 00 00 00 00 00 00
 1.848692 1  241             Rx   d 8 00 7E 7E 7E 7E 7E 00 D2
 1.848929 1  251             Rx   d 8 00 00 00 00 FF FF D4 22
 1.849184 1  252             Rx   d 8 00 00 00 00 FF FF D4 14
 1.849412 1  253             Rx   d 8 00 00 00 00 00 00 2C 82
 1.849674 1  263             Rx   d 8 01 F0 00 2A 1C 40 00 00
 1.849906 1  254             Rx   d 8 00 00 00 00 00 00 2B CF
 1.850138 1  255             Rx   d 8 00 00 00 00 00 00 00 00
 1.850390 1  256             Rx   d 8 00 00 00 00 00 00 00 00
 1.850645 1  257             Rx   d 8 00 00 00 00 00 00 00 00
 1.850903 1  258             Rx   d 8 00 00 00 00 00 00 00 00
 1.851138 1  268             Rx   d 8 01 ED 00 2B 1F 40 00 00
 1.851390 1  231             Rx   d 8 00 00 00 00 00 00 00 D2
 1.851641 1  311             Rx   d 8 FF FF FE B6 FF FF FE B5
 1.851859 1  312             Rx   d 8 FF FF FE B0 FF FF FE B5
 1.852130 1  211             Rx   d 8 00 01 01 F2 00 00 00 00
 1.852267 1  291             Rx   d 3 00 00 00
 1.869008 1  221             Rx   d 8 00 00 00 00 00 00 00 00
 1.869190 1  281             Rx   d 8 00 00 00 00 00 00 00 00
 1.869483 1  271             Rx   d 8 00 00 00 00 00 00 00 00
 1.869694 1  241             Rx   d 8 00 7E 7E 7E 7E 7E 00 D3
 1.869927 1  251             Rx   d 8 00 00 00 00 FF FF D4 22
 1.870158 1  252             Rx   d 8 00 00 00 01 FF FF D4 13
 1.870412 1  253             Rx   d 8 00 00 00 00 00 00 2C 82
 1.870706 1  254             Rx   d 8 00 00 00 00 00 00 2B CF
 1.870905 1  255             Rx   d 8 00 00 00 00 00 00 00 00
 1.871163 1  265             Rx   d 8 01 EB 00 2B 1F 40 00 00
 1.871397 1  256             Rx   d 8 00 00 00 00 00 00 00 00
 1.871673 1  257             Rx   d 8 00 00 00 00 00 00 00 00
 1.871926 1  258             Rx   d 8 00 00 00 00 00 00 00 00
 1.872166 1  231             Rx   d 8 00 00 00 00 00 00 00 D3
 1.872389 1  311             Rx   d 8 FF FF FE B6 FF FF FE B5
 1.872619 1  312             Rx   d 8 FF FF FE B0 FF FF FE B5
 1.872864 1  211             Rx   d 8 00 01 01 F2 00 00 00 00
 1.873036 1  291             Rx   d 3 00 00 00
 1.889989 1  221             Rx   d 8 00 00 00 00 00 00 00 00
 1.890188 1  281             Rx   d 8 00 00 00 00 00 00 00 00
 1.890461 1  271             Rx   d 8 00 00 00 00 00 00 00 00
 1.890693 1  241             Rx   d 8 00 7E 7E 7E 7E 7E 00 D4
 1.890907 1  251             Rx   d 8 00 00 00 00 FF FF D4 22
 1.891183 1  252             Rx   d 8 00 00 00 00 FF FF D4 13
 1.891389 1  262             Rx   d 8 01 EF 00 2A 1D 40 00 00
 1.891649 1  253             Rx   d 8 00 00 00 00 00 00 2C 82
 1.891885 1  254             Rx   d 8 00 00 00 00 00 00 2B CF
 1.892143 1  255             Rx   d 8 00 00 00 00 00 00 00 00
 1.892374 1  256             Rx   d 8 00 00 00 00 00 00 00 00
 1.892623 1  257             Rx   d 8 00 00 00 00 00 00 00 00
 1.892881 1  267             Rx   d 8 01 E9 00 2B 1F 40 00 00
 1.893114 1  258             Rx   d 8 00 00 00 00 00 00 00 00
 1.893371 1  231             Rx   d 8 00 00 00 00 00 00 00 D4
 1.893642 1  311             Rx   d 8 FF FF FE B6 FF FF FE B5
 1.893857 1  312             Rx   d 8 FF FF FE B0 FF FF FE B5
 1.894096 1  211             Rx   d 8 00 01 01 F2 00 00 00 00
 1.894242 1  291             Rx   d 3 00 00 00
 1.911004 1  221             Rx   d 8 00 00 00 00 00 00 00 00
 1.911221 1  281             Rx   d 8 00 00 00 00 00 00 00 00
 1.911481 1  271             Rx   d 8 00 00 00 00 00 00 00 00
 1.911695 1  241             Rx   d 8 00 7E 7E 7E 7E 7E 00 D5
 1.911927 1  251             Rx   d 8 00 00 00 00 FF FF D4 22
 1.912169 1  252             Rx   d 8 00 00 00 00 FF FF D4 14
 1.912404 1  253             Rx   d 8 00 00 00 00 00 00 2C 82
 1.912696 1  254             Rx   d 8 00 00 00 00 00 00 2B CF
 1.912927 1  264             Rx   d 8 01 E8 00 2A 1D 40 00 00
 1.913187 1  255             Rx   d 8 00 00 00 00 00 00 00 00
 1.913423 1  256             Rx   d 8 00 00 00 00 00 00 00 00
 1.913673 1  257             Rx   d 8 00 00 00 00 00 00 00 00
 1.913936 1  258             Rx   d 8 00 00 00 00 00 00 00 00
 1.914169 1  231             Rx   d 8 00 00 00 00 00 00 00 D5
 1.914411 1  311             Rx   d 8 FF FF FE B6 FF FF FE B5
 1.914645 1  312             Rx   d 8 FF FF FE B0 FF FF FE B5
 1.914880 1  211             Rx   d 8 00 01 01 F2 00 00 00 00
 1.915058 1  291             Rx   d 3 00 00 00
 1.917822 1  361             Rx   d 8 3A 64 13 42 FF FB 01 21
 1.918008 1  362             Rx   d 8 00 00 00 00 00 00 02 06
 1.931953 1  221             Rx   d 8 00 00 00 00 00 00 00 00
 1.932238 1  281             Rx   d 8 00 00 00 00 00 00 00 00
 1.932501 1  271             Rx   d 8 00 00 00 00 00 00 00 00
 1.932815 1  241             Rx   d 8 00 7E 7E 7E 7E 7E 00 D6
 1.932931 1  251             Rx   d 8 00 00 00 00 FF FF D4 22
 1.933161 1  261             Rx   d 8 01 EA 00 2A 1F 40 00 00
 1.933403 1  252             Rx   d 8 00 00 00 00 FF FF D4 13
 1.933691 1  253             Rx   d 8 00 00 00 00 00 00 2C 82
 1.933906 1  254             Rx   d 8 00 00 00 01 00 00 2B CF
 1.934164 1  255             Rx   d 8 00 00 00 00 00 00 00 00
 1.934406 1  256             Rx   d 8 00 00 00 00 00 00 00 00
 1.934641 1  266             Rx   d 8 01 E9 00 2C 20 40 00 00
 1.934901 1  257             Rx   d 8 00 00 00 00 00 00 00 00
 1.935116 1  258             Rx   d 8 00 00 00 00 00 00 00 00
 1.935373 1  231             Rx   d 8 00 00 00 00 00 00 00 D6
 1.935595 1  311             Rx   d 8 FF FF FE B6 FF FF FE B5
 1.935856 1  312             Rx   d 8 FF FF FE B0 FF FF FE B5
 1.936077 1  211             Rx   d 8 00 01 01 F2 00 00 00 00
 1.936269 1  291             Rx   d 3 00 00 00
 1.953002 1  221             Rx   d 8 00 00 00 00 00 00 00 00
 1.953188 1  281             Rx   d 8 00 00 00 00 00 00 00 00
 1.953481 1  271             Rx   d 8 00 00 00 00 00 00 00 00
 1.953693 1  241             Rx   d 8 00 7E 7E 7E 7E 7E 00 D7
 1.953924 1  251             Rx   d 8 00 00 00 00 FF FF D4 22
 1.954185 1  252             Rx   d 8 00 00 00 00 FF FF D4 13
 1.954404 1  253             Rx   d 8 00 00 00 00 00 00 2C 82
 1.954643 1  263             Rx   d 8 01 F0 00 2A 1C 40 00 00
 1.954899 1  254             Rx   d 8 00 00 00 00 00 00 2B CF
 1.955134 1  255             Rx   d 8 00 00 00 00 00 00 00 00
 1.955385 1  256             Rx   d 8 00 00 00 00 00 00 00 00
 1.955642 1  257             Rx   d 8 00 00 00 00 00 00 00 00
 1.955899 1  258             Rx   d 8 00 00 00 00 00 00 00 00
 1.956135 1  268             Rx   d 8 01 ED 00 2B 1F 40 00 00
 1.956374 1  231             Rx   d 8 00 00 00 00 00 00 00 D7
 1.956617 1  311             Rx   d 8 FF FF FE B6 FF FF FE B5
 1.956856 1  312             Rx   d 8 FF FF FE B0 FF FF FE B5
 1.957078 1  211             Rx   d 8 00 01 01 F2 00 00 00 00
 1.957269 1  291             Rx   d 3 00 00 00
 1.973959 1  221             Rx   d 8 00 00 00 00 00 00 00 00
 1.974187 1  281             Rx   d 8 00 00 00 00 00 00 00 00
 1.974473 1  271             Rx   d 8 00 00 00 00 00 00 00 00
 1.974651 1  241             Rx   d 8 00 7E 7E 7E 7E 7E 00 D8
 1.974926 1  251             Rx   d 8 00 00 00 00 FF FF D4 22
 1.975158 1  252             Rx   d 8 00 00 00 00 FF FF D4 14
 1.975405 1  253             Rx   d 8 00 00 00 00 00 00 2C 82
 1.975668 1  254             Rx   d 8 00 00 00 00 00 00 2B CF
 1.975900 1  255             Rx   d 8 00 00 00 00 00 00 00 00
 1.976160 1  265             Rx   d 8 01 EB 00 2B 1F 40 00 00
 1.976386 1  256             Rx   d 8 00 00 00 00 00 00 00 00
 1.976674 1  257             Rx   d 8 00 00 00 00 00 00 00 00
 1.976902 1  258             Rx   d 8 00 00 00 00 00 00 00 00
 1.977161 1  231             Rx   d 8 00 00 00 00 00 00 00 D8
 1.977387 1  311             Rx   d 8 FF FF FE B6 FF FF FE B5
 1.977618 1  312             Rx   d 8 FF FF FE B0 FF FF FE B5
 1.977854 1  211             Rx   d 8 00 01 01 F2 00 00 00 00
 1.978036 1  291             Rx   d 3 00 00 00
 1.995015 1  221             Rx   d 8 00 00 00 00 00 00 00 00
 1.995189 1  281             Rx   d 8 00 00 00 00 00 00 00 00
 1.995483 1  271             Rx   d 8 00 00 00 00 00 00 00 00
 1.995695 1  241             Rx   d 8 00 7E 7E 7E 7E 7E 00 D9
 1.995954 1  251             Rx   d 8 00 00 00 00 FF FF D4 22
 1.996187 1  252             Rx   d 8 00 00 00 00 FF FF D4 14
 1.996404 1  262             Rx   d 8 01 EF 00 2A 1D 40 00 00
 1.996670 1  253             Rx   d 8 00 00 00 00 00 00 2C 82
 1.996907 1  254             Rx   d 8 00 00 00 00 00 00 2B CF
 1.997164 1  255             Rx   d 8 00 00 00 00 00 00 00 00
 1.997418 1  256             Rx   d 8 00 00 00 00 00 00 00 00
 1.997673 1  257             Rx   d 8 00 00 00 00 00 00 00 00
 1.997907 1  267             Rx   d 8 01 E9 00 2B 1F 40 00 00
 1.998165 1  258             Rx   d 8 00 00 00 00 00 00 00 00
 1.998389 1  231             Rx   d 8 00 00 00 00 00 00 00 D9
 1.998644 1  311             Rx   d 8 FF FF FE B6 FF FF FE B5
 1.998855 1  312             Rx   d 8 FF FF FE B0 FF FF FE B5
 1.999118 1  211             Rx   d 8 00 01 01 F2 00 00 00 00
 1.999267 1  291             Rx   d 3 00 00 00
 2.015942 1  221             Rx   d 8 00 00 00 00 00 00 00 00
 2.016191 1  281             Rx   d 8 00 00 00 00 00 00 00 00
 2.016483 1  271             Rx   d 8 00 00 00 00 00 00 00 00
 2.016669 1  241             Rx   d 8 00 7E 7E 7E 7E 7E 00 DA
 2.016929 1  251             Rx   d 8 00 00 00 00 FF FF D4 22
 2.017161 1  252             Rx   d 8 00 00 00 00 FF FF D4 13
 2.017413 1  253             Rx   d 8 00 00 00 01 00 00 2C 82
 2.017670 1  254             Rx   d 8 00 00 00 01 00 00 2B CF
 2.017902 1  264             Rx   d 8 01 E8 00 2A 1F 40 00 00
 2.018160 1  255             Rx   d 8 00 00 00 00 00 00 00 00
 2.018386 1  256             Rx   d 8 00 00 00 00 00 00 00 00
 2.018625 1  257             Rx   d 8 00 00 00 00 00 00 00 00
 2.018902 1  258             Rx   d 8 00 00 00 00 00 00 00 00
 2.019163 1  231             Rx   d 8 00 00 00 00 00 00 00 DA
 2.019388 1  311             Rx   d 8 FF FF FE B6 FF FF FE B5
 2.019616 1  312             Rx   d 8 FF FF FE B0 FF FF FE B5
 2.019854 1  211             Rx   d 8 00 01 01 F2 00 00 00 00
 2.020009 1  291             Rx   d 3 00 00 00
 2.036960 1  221             Rx   d 8 00 00 00 00 00 00 00 00
 2.037169 1  281             Rx   d 8 00 00 00 00 00 00 00 00
 2.037460 1  271             Rx   d 8 00 00 00 00 00 00 00 00
 2.037693 1  241             Rx   d 8 00 7E 7E 7E 7E 7E 00 DB
 2.037926 1  251             Rx   d 8 00 00 00 00 FF FF D4 22
 2.038141 1  261             Rx   d 8 01 EA 00 2A 1C 40 00 00
 2.038410 1  252             Rx   d 8 00 00 00 01 FF FF D4 14
 2.038669 1  253             Rx   d 8 00 00 00 00 00 00 2C 82
 2.038887 1  254             Rx   d 8 00 00 00 00 00 00 2B CF
 2.039145 1  255             Rx   d 8 00 00 00 00 00 00 00 00
 2.039383 1  256             Rx   d 8 00 00 00 00 00 00 00 00
 2.039642 1  266             Rx   d 8 01 E9 00 2C 20 40 00 00
 2.039900 1  257             Rx   d 8 00 00 00 00 00 00 00 00
 2.040134 1  258             Rx   d 8 00 00 00 00 00 00 00 00
 2.040387 1  231             Rx   d 8 00 00 00 00 00 00 00 DB
 2.040619 1  311             Rx   d 8 FF FF FE B6 FF FF FE B5
 2.040880 1  312             Rx   d 8 FF FF FE B0 FF FF FE B5
 2.041095 1  211             Rx   d 8 00 01 01 F2 00 00 00 00
 2.041265 1  291             Rx   d 3 00 00 00
 2.057959 1  221             Rx   d 8 00 00 00 00 00 00 00 00
 2.058190 1  281             Rx   d 8 00 00 00 00 00 00 00 00
 2.058481 1  271             Rx   d 8 00 00 00 00 00 00 00 00
 2.058696 1  241             Rx   d 8 00 7E 7E 7E 7E 7E 00 DC
 2.058928 1  251             Rx   d 8 00 00 00 00 FF FF D4 22
